(699240.642748) PCAN_USBBUS1 14A#002A000007002A28 R
(699240.643516) PCAN_USBBUS1 158#0000000000000019 R
(699240.643729) PCAN_USBBUS1 191#010000A9A9A10119 R
(699240.644583) PCAN_USBBUS1 1AB#800046 R
(699240.645052) PCAN_USBBUS1 094#80220801FB000C79 R
(699240.646247) PCAN_USBBUS1 130#0000FFFF00000422 R
(699240.646503) PCAN_USBBUS1 17C#0000000000000022 R
(699240.646631) PCAN_USBBUS1 1D6#0031 R
(699240.646844) PCAN_USBBUS1 1DC#42000000000035 R
(699240.647057) PCAN_USBBUS1 1DD#006B080E00000033 R
(699240.647271) PCAN_USBBUS1 1ED#0000000039 R
(699240.649404) PCAN_USBBUS1 1AC#7FFF00000000000D R
(699240.649660) PCAN_USBBUS1 1C2#0000000000000009 R
(699240.649873) PCAN_USBBUS1 1A4#006700000000000C R
(699240.650343) PCAN_USBBUS1 1B0#0000000000010B R
(699240.651068) PCAN_USBBUS1 1D0#000000000000000A R
(699240.651324) PCAN_USBBUS1 1DF#8AD000000000001B R
(699240.651409) PCAN_USBBUS1 1FB#1C R
(699240.651793) PCAN_USBBUS1 1EF#03FF007530000019 R
(699240.652049) PCAN_USBBUS1 1FA#000000000000001D R
(699240.652775) PCAN_USBBUS1 14A#002A000007002A37 R
(699240.653500) PCAN_USBBUS1 158#0000000000000028 R
(699240.653756) PCAN_USBBUS1 191#010000A9A9A10128 R
(699240.653884) PCAN_USBBUS1 1A7#0015 R
(699240.655079) PCAN_USBBUS1 094#80220801FB000C4C R
(699240.656145) PCAN_USBBUS1 221#360000000028 R
(699240.656401) PCAN_USBBUS1 130#0000FFFF00000431 R
(699240.656657) PCAN_USBBUS1 17C#0000000000000031 R
(699240.656828) PCAN_USBBUS1 296#00000025 R
(699240.656999) PCAN_USBBUS1 039#00000C R
(699240.662759) PCAN_USBBUS1 14A#002A000007002A0A R
(699240.663526) PCAN_USBBUS1 158#0000000000000037 R
(699240.663740) PCAN_USBBUS1 191#010000A9A9A10137 R
(699240.664593) PCAN_USBBUS1 1AB#800055 R
(699240.665062) PCAN_USBBUS1 094#80220801FC000C5A R
(699240.666214) PCAN_USBBUS1 130#0000FFFF00000404 R
(699240.666470) PCAN_USBBUS1 17C#0000000000000004 R
(699240.666598) PCAN_USBBUS1 1D6#0004 R
(699240.666854) PCAN_USBBUS1 1DC#42000000000008 R
(699240.667068) PCAN_USBBUS1 1DD#006B080E00000006 R
(699240.667281) PCAN_USBBUS1 1ED#000000000C R
(699240.669457) PCAN_USBBUS1 1AC#7FFF00000000001C R
(699240.669670) PCAN_USBBUS1 1C2#0000000000000018 R
(699240.669926) PCAN_USBBUS1 1A4#006700000000001B R
(699240.670396) PCAN_USBBUS1 1B0#0000000000011A R
(699240.671121) PCAN_USBBUS1 1D0#000000000000000A R
(699240.671334) PCAN_USBBUS1 1DF#8AD000000000002A R
(699240.671462) PCAN_USBBUS1 1FB#2B R
(699240.671846) PCAN_USBBUS1 1EF#03FF007530000028 R
(699240.672102) PCAN_USBBUS1 1FA#000000000000002C R
(699240.672358) PCAN_USBBUS1 255#0000000055552531 R
(699240.672785) PCAN_USBBUS1 14A#002A000007002A19 R
(699240.673510) PCAN_USBBUS1 158#000000000000000A R
(699240.673766) PCAN_USBBUS1 191#010000A9A9A1010A R
(699240.673894) PCAN_USBBUS1 1A7#0024 R
(699240.675046) PCAN_USBBUS1 094#80220801FB000C6A R
(699240.676241) PCAN_USBBUS1 130#0000FFFF00000413 R
(699240.676497) PCAN_USBBUS1 17C#0000000000000013 R
(699240.682769) PCAN_USBBUS1 14A#002A000007002A28 R
(699240.683494) PCAN_USBBUS1 158#0000000000000019 R
(699240.683750) PCAN_USBBUS1 191#010000A9A9A10119 R
(699240.684604) PCAN_USBBUS1 1AB#800064 R
(699240.685073) PCAN_USBBUS1 094#80220801FB000C79 R
(699240.686225) PCAN_USBBUS1 130#0000FFFF00000422 R
(699240.686481) PCAN_USBBUS1 17C#0000000000000022 R
(699240.686609) PCAN_USBBUS1 1D6#0013 R
(699240.686822) PCAN_USBBUS1 1DC#42000000000017 R
(699240.687078) PCAN_USBBUS1 1DD#006B080E00000015 R
(699240.687249) PCAN_USBBUS1 1ED#000000001B R
(699240.689467) PCAN_USBBUS1 1AC#7FFF00000000002B R
(699240.689723) PCAN_USBBUS1 1C2#0000000000000027 R
(699240.689979) PCAN_USBBUS1 1A4#006700000000002A R
(699240.690235) PCAN_USBBUS1 31B#0000000000000036 R
(699240.690449) PCAN_USBBUS1 1B0#00000000000129 R
(699240.690918) PCAN_USBBUS1 1FB#3A R
(699240.691174) PCAN_USBBUS1 1D0#000000000000000A R
(699240.691430) PCAN_USBBUS1 1DF#8AD0000000000039 R
(699240.691899) PCAN_USBBUS1 1EF#03FF007530000037 R
(699240.692155) PCAN_USBBUS1 1FA#000000000000003B R
(699240.692753) PCAN_USBBUS1 14A#002A000007002A37 R
(699240.693521) PCAN_USBBUS1 158#0000000000000028 R
(699240.693777) PCAN_USBBUS1 191#010000A9A9A10128 R
(699240.693905) PCAN_USBBUS1 1A7#0033 R
(699240.695057) PCAN_USBBUS1 094#80220801FA000C4D R
(699240.695313) PCAN_USBBUS1 221#360000000037 R
(699240.695483) PCAN_USBBUS1 296#00000034 R
(699240.696251) PCAN_USBBUS1 130#0000FFFF00000431 R
(699240.696465) PCAN_USBBUS1 17C#0000000000000031 R
(699240.697062) PCAN_USBBUS1 039#00001B R
(699240.702779) PCAN_USBBUS1 14A#002A000007002A0A R
(699240.703206) PCAN_USBBUS1 305#8054000000000F R
(699240.703505) PCAN_USBBUS1 158#0000000000000037 R
(699240.703761) PCAN_USBBUS1 191#010000A9A9A10137 R
(699240.704571) PCAN_USBBUS1 1AB#800073 R
(699240.705041) PCAN_USBBUS1 094#80220801FB000C5B R
(699240.706235) PCAN_USBBUS1 130#0000FFFF00000404 R
(699240.706491) PCAN_USBBUS1 17C#0000000000000004 R
(699240.706619) PCAN_USBBUS1 1D6#0022 R
(699240.706832) PCAN_USBBUS1 1DC#42000000000026 R
(699240.707088) PCAN_USBBUS1 1DD#006B080E00000024 R
(699240.707259) PCAN_USBBUS1 1ED#000000002A R
(699240.707515) PCAN_USBBUS1 320#0000000000000021 R
(699240.707771) PCAN_USBBUS1 324#5959000000000AAF R
(699240.708027) PCAN_USBBUS1 328#0000000000000065 R
(699240.708240) PCAN_USBBUS1 32F#0000000000000022 R
(699240.708411) PCAN_USBBUS1 339#FE29101F R
(699240.708667) PCAN_USBBUS1 34E#0055000000000027 R
(699240.708923) PCAN_USBBUS1 35E#000000000000003F R
(699240.709179) PCAN_USBBUS1 37C#FA00000000000027 R
(699240.709392) PCAN_USBBUS1 3D7#B0C104C151C1223E R
(699240.709648) PCAN_USBBUS1 1AC#7FFF00000000003A R
(699240.709904) PCAN_USBBUS1 1C2#0000000000000036 R
(699240.710118) PCAN_USBBUS1 1A4#0067000000000039 R
(699240.710587) PCAN_USBBUS1 1B0#00000000000138 R
(699240.710886) PCAN_USBBUS1 1FB#0D R
(699240.711270) PCAN_USBBUS1 1D0#000000000000000A R
(699240.711526) PCAN_USBBUS1 1DF#8AD000000000000C R
(699240.711995) PCAN_USBBUS1 1EF#03FF00753000000A R
(699240.712251) PCAN_USBBUS1 1FA#000000000000000E R
(699240.712507) PCAN_USBBUS1 255#0000000055552630 R
(699240.712720) PCAN_USBBUS1 30C#000000FF00008003 R
(699240.712976) PCAN_USBBUS1 14A#002A000007002A19 R
(699240.713318) PCAN_USBBUS1 33D#000000080D R
(699240.713574) PCAN_USBBUS1 158#000000000000000A R
(699240.713830) PCAN_USBBUS1 191#010000A9A9A1010A R
(699240.713958) PCAN_USBBUS1 1A7#0006 R
(699240.714214) PCAN_USBBUS1 39F#000000000000000D R
(699240.715024) PCAN_USBBUS1 094#80220801FB000C6A R
(699240.716219) PCAN_USBBUS1 130#0000FFFF00000413 R
(699240.716475) PCAN_USBBUS1 17C#0000000000000013 R
(699240.722747) PCAN_USBBUS1 14A#002A000007002A28 R
(699240.723515) PCAN_USBBUS1 158#0000000000000019 R
(699240.723771) PCAN_USBBUS1 191#010000A9A9A10119 R
(699240.724582) PCAN_USBBUS1 1AB#800046 R
(699240.725051) PCAN_USBBUS1 094#80220801FC000C78 R
(699240.726246) PCAN_USBBUS1 130#0000FFFF00000422 R
(699240.726502) PCAN_USBBUS1 17C#0000000000000022 R
(699240.726630) PCAN_USBBUS1 1D6#0031 R
(699240.726843) PCAN_USBBUS1 1DC#42000000000035 R
(699240.727099) PCAN_USBBUS1 1DD#006B080E00000033 R
(699240.727270) PCAN_USBBUS1 1ED#0000000039 R
(699240.729573) PCAN_USBBUS1 1AC#7FFF00000000000D R
(699240.729787) PCAN_USBBUS1 1C2#0000000000000009 R
(699240.730043) PCAN_USBBUS1 1A4#006700000000000C R
(699240.730512) PCAN_USBBUS1 1B0#0000000000010B R
(699240.730896) PCAN_USBBUS1 1FB#1C R
(699240.731237) PCAN_USBBUS1 1D0#000000000000000A R
(699240.731493) PCAN_USBBUS1 1DF#8AD000000000001B R
(699240.731963) PCAN_USBBUS1 1EF#03FF007530000019 R
(699240.732219) PCAN_USBBUS1 1FA#000000000000001D R
(699240.732773) PCAN_USBBUS1 14A#002A000007002A37 R
(699240.733541) PCAN_USBBUS1 158#0000000000000028 R
(699240.733755) PCAN_USBBUS1 191#010000A9A9A10128 R
(699240.733883) PCAN_USBBUS1 1A7#0015 R
(699240.734096) PCAN_USBBUS1 403#000000003E R
(699240.734309) PCAN_USBBUS1 40F#A60000650028003D R
(699240.735077) PCAN_USBBUS1 094#80620801FB000C48 R
(699240.735547) PCAN_USBBUS1 221#36000000000A R
(699240.735717) PCAN_USBBUS1 296#00000007 R
(699240.735973) PCAN_USBBUS1 309#0000000000004008 R
(699240.736229) PCAN_USBBUS1 326#663202000000000A R
(699240.736443) PCAN_USBBUS1 130#0000FFFF00000431 R
(699240.736699) PCAN_USBBUS1 17C#0000000000000031 R
(699240.736955) PCAN_USBBUS1 371#000000000000000D R
(699240.737125) PCAN_USBBUS1 039#00002A R
(699240.737296) PCAN_USBBUS1 372#E000000E R
(699240.737509) PCAN_USBBUS1 374#43400100C9404001 R
(699240.737765) PCAN_USBBUS1 378#000000003C8000C3 R
(699240.738021) PCAN_USBBUS1 37B#0000002018000008 R
(699240.738235) PCAN_USBBUS1 396#0000004300000F R
(699240.738491) PCAN_USBBUS1 3A1#0E80100000000003 R
(699240.738747) PCAN_USBBUS1 405#0000000020000508 R
(699240.738960) PCAN_USBBUS1 428#0A00000145B407 R
(699240.742757) PCAN_USBBUS1 14A#002A000007002A0A R
(699240.743525) PCAN_USBBUS1 158#0000000000000037 R
(699240.743781) PCAN_USBBUS1 191#010000A9A9A10137 R
(699240.744592) PCAN_USBBUS1 1AB#800055 R
(699240.745019) PCAN_USBBUS1 094#80620801FB000C57 R
(699240.746256) PCAN_USBBUS1 130#0000FFFF00000404 R
(699240.746469) PCAN_USBBUS1 17C#0000000000000004 R
(699240.746640) PCAN_USBBUS1 1D6#0004 R
(699240.746853) PCAN_USBBUS1 1DC#42000000000008 R
(699240.747109) PCAN_USBBUS1 1DD#006B080E00000006 R
(699240.747280) PCAN_USBBUS1 1ED#000000000C R
(699240.749584) PCAN_USBBUS1 1AC#7FFF00000000001C R
(699240.749840) PCAN_USBBUS1 1C2#0000000000000018 R
(699240.750096) PCAN_USBBUS1 1A4#006700000000001B R
(699240.750565) PCAN_USBBUS1 1B0#0000000000011A R
(699240.750949) PCAN_USBBUS1 1FB#2B R
(699240.751290) PCAN_USBBUS1 1D0#000000000000000A R
(699240.751504) PCAN_USBBUS1 1DF#8AD000000000002A R
(699240.752016) PCAN_USBBUS1 1EF#03FF007530000028 R
(699240.752272) PCAN_USBBUS1 1FA#000000000000002C R
(699240.752528) PCAN_USBBUS1 255#000000005555272F R
(699240.752784) PCAN_USBBUS1 14A#002A000007002A19 R
(699240.753552) PCAN_USBBUS1 158#000000000000000A R
(699240.753765) PCAN_USBBUS1 191#010000A9A9A1010A R
(699240.753893) PCAN_USBBUS1 1A7#0024 R
(699240.755045) PCAN_USBBUS1 094#80620801FA000C67 R
(699240.756240) PCAN_USBBUS1 130#0000FFFF00000413 R
(699240.756496) PCAN_USBBUS1 17C#0000000000000013 R
(699240.762768) PCAN_USBBUS1 14A#002A000007002A28 R
(699240.763536) PCAN_USBBUS1 158#0000000000000019 R
(699240.763749) PCAN_USBBUS1 191#010000A9A9A10119 R
(699240.764602) PCAN_USBBUS1 1AB#800064 R
(699240.765029) PCAN_USBBUS1 094#80220801FA000C7A R
(699240.766224) PCAN_USBBUS1 130#0000FFFF00000422 R
(699240.766480) PCAN_USBBUS1 17C#0000000000000022 R
(699240.766608) PCAN_USBBUS1 1D6#0013 R
(699240.766821) PCAN_USBBUS1 1DC#42000000000017 R
(699240.767077) PCAN_USBBUS1 1DD#006B080E00000015 R
(699240.767290) PCAN_USBBUS1 1ED#000000001B R
(699240.769637) PCAN_USBBUS1 1AC#7FFF00000000002B R
(699240.769893) PCAN_USBBUS1 1C2#0000000000000027 R
(699240.770149) PCAN_USBBUS1 1A4#006700000000002A R
(699240.770618) PCAN_USBBUS1 1B0#00000000000129 R
(699240.771173) PCAN_USBBUS1 1FB#3A R
(699240.771429) PCAN_USBBUS1 1D0#000000000000000A R
(699240.771685) PCAN_USBBUS1 1DF#8AD0000000000039 R
(699240.772026) PCAN_USBBUS1 1EF#03FF007530000037 R
(699240.772282) PCAN_USBBUS1 1FA#000000000000003B R
(699240.772751) PCAN_USBBUS1 14A#002A000007002A37 R
(699240.773519) PCAN_USBBUS1 158#0000000000000028 R
(699240.773775) PCAN_USBBUS1 191#010000A9A9A10128 R
(699240.773903) PCAN_USBBUS1 1A7#0033 R
(699240.775013) PCAN_USBBUS1 094#80220801FB000C4C R
(699240.776165) PCAN_USBBUS1 221#360000000019 R
(699240.776421) PCAN_USBBUS1 130#0000FFFF00000431 R
(699240.776677) PCAN_USBBUS1 17C#0000000000000031 R
(699240.776847) PCAN_USBBUS1 296#00000016 R
(699240.777018) PCAN_USBBUS1 039#000039 R
(699240.782778) PCAN_USBBUS1 14A#002A000007002A0A R
(699240.783546) PCAN_USBBUS1 158#0000000000000037 R
(699240.783802) PCAN_USBBUS1 191#010000A9A9A10137 R
(699240.784570) PCAN_USBBUS1 1AB#800073 R
(699240.784997) PCAN_USBBUS1 094#80220801FB000C5B R
(699240.786234) PCAN_USBBUS1 130#0000FFFF00000404 R
(699240.786490) PCAN_USBBUS1 17C#0000000000000004 R
(699240.786618) PCAN_USBBUS1 1D6#0022 R
(699240.786831) PCAN_USBBUS1 1DC#42000000000026 R
(699240.787087) PCAN_USBBUS1 1DD#006B080E00000024 R
(699240.787258) PCAN_USBBUS1 1ED#000000002A R
(699240.789690) PCAN_USBBUS1 1AC#7FFF00000000003A R
(699240.789946) PCAN_USBBUS1 1C2#0000000000000036 R
(699240.790159) PCAN_USBBUS1 1A4#0067000000000039 R
(699240.790415) PCAN_USBBUS1 31B#0000000000000009 R
(699240.790629) PCAN_USBBUS1 1B0#00000000000138 R
(699240.790885) PCAN_USBBUS1 1FB#0D R
(699240.791311) PCAN_USBBUS1 1D0#000000000000000A R
(699240.791567) PCAN_USBBUS1 1DF#8AD000000000000C R
(699240.792036) PCAN_USBBUS1 1EF#03FF00753000000A R
(699240.792292) PCAN_USBBUS1 1FA#000000000000000E R
(699240.792548) PCAN_USBBUS1 255#000000005555282E R
(699240.793018) PCAN_USBBUS1 14A#002A000007002A19 R
(699240.793530) PCAN_USBBUS1 158#000000000000000A R
(699240.793786) PCAN_USBBUS1 191#010000A9A9A1010A R
(699240.793914) PCAN_USBBUS1 1A7#0006 R
(699240.795023) PCAN_USBBUS1 094#80220801FB000C6A R
(699240.796218) PCAN_USBBUS1 130#0000FFFF00000413 R
(699240.796474) PCAN_USBBUS1 17C#0000000000000013 R
(699240.802746) PCAN_USBBUS1 14A#002A000007002A28 R
(699240.803215) PCAN_USBBUS1 305#8054000000001E R
(699240.803514) PCAN_USBBUS1 158#0000000000000019 R
(699240.803770) PCAN_USBBUS1 191#010000A9A9A10119 R
(699240.804580) PCAN_USBBUS1 1AB#800046 R
(699240.805007) PCAN_USBBUS1 094#80220801FB000C79 R
(699240.806244) PCAN_USBBUS1 130#0000FFFF00000422 R
(699240.806500) PCAN_USBBUS1 17C#0000000000000022 R
(699240.806628) PCAN_USBBUS1 1D6#0031 R
(699240.806842) PCAN_USBBUS1 1DC#42000000000035 R
(699240.807098) PCAN_USBBUS1 1DD#006B080E00000033 R
(699240.807268) PCAN_USBBUS1 1ED#0000000039 R
(699240.807524) PCAN_USBBUS1 320#0000000000000030 R
(699240.807780) PCAN_USBBUS1 324#5959000000000ABE R
(699240.807994) PCAN_USBBUS1 328#0000000000000074 R
(699240.808250) PCAN_USBBUS1 32F#0000000000000031 R
(699240.808420) PCAN_USBBUS1 339#FE29102E R
(699240.808676) PCAN_USBBUS1 34E#0055000000000036 R
(699240.808932) PCAN_USBBUS1 35E#0000000000000002 R
(699240.809146) PCAN_USBBUS1 37C#FA00000000000036 R
(699240.809743) PCAN_USBBUS1 1AC#7FFF00000000000D R
(699240.809999) PCAN_USBBUS1 1C2#0000000000000009 R
(699240.810212) PCAN_USBBUS1 1A4#006700000000000C R
(699240.810639) PCAN_USBBUS1 1B0#0000000000010B R
(699240.810895) PCAN_USBBUS1 1FB#1C R
(699240.811322) PCAN_USBBUS1 1D0#000000000000000A R
(699240.811578) PCAN_USBBUS1 1DF#8AD000000000001B R
(699240.812047) PCAN_USBBUS1 1EF#03FF007530000019 R
(699240.812303) PCAN_USBBUS1 1FA#000000000000001D R
(699240.812559) PCAN_USBBUS1 30C#000000FF00008012 R
(699240.812772) PCAN_USBBUS1 33D#000000081C R
(699240.812985) PCAN_USBBUS1 14A#002A000007002A37 R
(699240.813455) PCAN_USBBUS1 39F#000000000000001C R
(699240.813711) PCAN_USBBUS1 158#0000000000000028 R
(699240.813924) PCAN_USBBUS1 191#010000A9A9A10128 R
(699240.814052) PCAN_USBBUS1 1A7#0015 R
(699240.815033) PCAN_USBBUS1 094#80220801FB000C4C R
(699240.815417) PCAN_USBBUS1 221#360000000028 R
(699240.815588) PCAN_USBBUS1 296#00000025 R
(699240.816228) PCAN_USBBUS1 130#0000FFFF00000431 R
(699240.816484) PCAN_USBBUS1 17C#0000000000000031 R
(699240.817081) PCAN_USBBUS1 039#00000C R
(699240.822756) PCAN_USBBUS1 14A#002A000007002A0A R
(699240.823524) PCAN_USBBUS1 158#0000000000000037 R
(699240.823780) PCAN_USBBUS1 191#010000A9A9A10137 R
(699240.824591) PCAN_USBBUS1 1AB#800055 R
(699240.825017) PCAN_USBBUS1 094#80220801FB000C5B R
(699240.826255) PCAN_USBBUS1 130#0000FFFF00000404 R
(699240.826511) PCAN_USBBUS1 17C#0000000000000004 R
(699240.826639) PCAN_USBBUS1 1D6#0004 R
(699240.826852) PCAN_USBBUS1 1DC#42000000000008 R
(699240.827108) PCAN_USBBUS1 1DD#006B080E00000006 R
(699240.827279) PCAN_USBBUS1 1ED#000000000C R
(699240.829753) PCAN_USBBUS1 1AC#7FFF00000000001C R
(699240.830009) PCAN_USBBUS1 1C2#0000000000000018 R
(699240.830265) PCAN_USBBUS1 1A4#006700000000001B R
(699240.830607) PCAN_USBBUS1 1B0#0000000000011A R
(699240.830905) PCAN_USBBUS1 1FB#2B R
(699240.831332) PCAN_USBBUS1 1D0#000000000000000A R
(699240.831545) PCAN_USBBUS1 1DF#8AD000000000002A R
(699240.832057) PCAN_USBBUS1 1EF#03FF007530000028 R
(699240.832313) PCAN_USBBUS1 1FA#000000000000002C R
(699240.832569) PCAN_USBBUS1 255#000000005555292D R
(699240.832783) PCAN_USBBUS1 14A#002A000007002A19 R
(699240.833551) PCAN_USBBUS1 158#000000000000000A R
(699240.833764) PCAN_USBBUS1 191#010000A9A9A1010A R
(699240.833935) PCAN_USBBUS1 1A7#0024 R
(699240.835001) PCAN_USBBUS1 094#80620805FB000C62 R
(699240.836238) PCAN_USBBUS1 309#0000000000004017 R
(699240.836452) PCAN_USBBUS1 130#0000FFFF00000413 R
(699240.836708) PCAN_USBBUS1 17C#0000000000000013 R
(699240.836964) PCAN_USBBUS1 326#6632020000000019 R
(699240.837220) PCAN_USBBUS1 371#000000000000001C R
(699240.837390) PCAN_USBBUS1 372#E000001D R
(699240.837646) PCAN_USBBUS1 374#43400100C9404010 R
(699240.837860) PCAN_USBBUS1 378#000000003C8000D2 R
(699240.838116) PCAN_USBBUS1 37B#0000002018000017 R
(699240.838372) PCAN_USBBUS1 396#0000004300001E R
(699240.842766) PCAN_USBBUS1 14A#002A000007002A28 R
(699240.843534) PCAN_USBBUS1 158#0000000000000019 R
(699240.843790) PCAN_USBBUS1 191#010000A9A9A10119 R
(699240.844601) PCAN_USBBUS1 1AB#800064 R
(699240.844985) PCAN_USBBUS1 094#80620805FB000C71 R
(699240.846222) PCAN_USBBUS1 130#0000FFFF00000422 R
(699240.846478) PCAN_USBBUS1 17C#0000000000000022 R
(699240.846606) PCAN_USBBUS1 1D6#0013 R
(699240.846862) PCAN_USBBUS1 1DC#42000000000017 R
(699240.847076) PCAN_USBBUS1 1DD#006B080E00000015 R
(699240.847289) PCAN_USBBUS1 1ED#000000001B R
(699240.849806) PCAN_USBBUS1 1AC#7FFF00000000002B R
(699240.850062) PCAN_USBBUS1 1C2#0000000000000027 R
(699240.850318) PCAN_USBBUS1 1DF#8AD0000000000039 R
(699240.850532) PCAN_USBBUS1 1A4#006700000000002A R
(699240.850830) PCAN_USBBUS1 1B0#00000000000129 R
(699240.850958) PCAN_USBBUS1 1FB#3A R
(699240.851556) PCAN_USBBUS1 1D0#000000000000000A R
(699240.852025) PCAN_USBBUS1 1EF#03FF007530000037 R
(699240.852281) PCAN_USBBUS1 1FA#000000000000003B R
(699240.852750) PCAN_USBBUS1 14A#002A000007002A37 R
(699240.853561) PCAN_USBBUS1 158#0000000000000028 R
(699240.853774) PCAN_USBBUS1 191#010000A9A9A10128 R
(699240.853902) PCAN_USBBUS1 1A7#0033 R
(699240.855012) PCAN_USBBUS1 094#80620801FB000C48 R
(699240.855523) PCAN_USBBUS1 221#360000000037 R
(699240.855694) PCAN_USBBUS1 296#00000034 R
(699240.856249) PCAN_USBBUS1 130#0000FFFF00000431 R
(699240.856505) PCAN_USBBUS1 17C#0000000000000031 R
(699240.857059) PCAN_USBBUS1 039#00001B R
(699240.862777) PCAN_USBBUS1 14A#002A000007002A0A R
(699240.863545) PCAN_USBBUS1 158#0000000000000037 R
(699240.863801) PCAN_USBBUS1 191#010000A9A9A10137 R
(699240.864569) PCAN_USBBUS1 1AB#800073 R
(699240.864995) PCAN_USBBUS1 094#80620801FB000C57 R
(699240.866233) PCAN_USBBUS1 130#0000FFFF00000404 R
(699240.866489) PCAN_USBBUS1 17C#0000000000000004 R
(699240.866617) PCAN_USBBUS1 1D6#0022 R
(699240.866830) PCAN_USBBUS1 1DC#42000000000026 R
(699240.867086) PCAN_USBBUS1 1DD#006B080E00000024 R
(699240.867257) PCAN_USBBUS1 1ED#000000002A R
(699240.869859) PCAN_USBBUS1 1AC#7FFF00000000003A R
(699240.870115) PCAN_USBBUS1 1C2#0000000000000036 R
(699240.870329) PCAN_USBBUS1 1DF#8AD000000000000C R
(699240.870585) PCAN_USBBUS1 1A4#0067000000000039 R
(699240.870841) PCAN_USBBUS1 1B0#00000000000138 R
(699240.871182) PCAN_USBBUS1 1FB#0D R
(699240.871566) PCAN_USBBUS1 1D0#000000000000000A R
(699240.872035) PCAN_USBBUS1 1EF#03FF00753000000A R
(699240.872291) PCAN_USBBUS1 1FA#000000000000000E R
(699240.872547) PCAN_USBBUS1 255#0000000055552A2C R
(699240.872761) PCAN_USBBUS1 14A#002A000007002A19 R
(699240.873571) PCAN_USBBUS1 158#000000000000000A R
(699240.873785) PCAN_USBBUS1 191#010000A9A9A1010A R
(699240.873913) PCAN_USBBUS1 1A7#0006 R
(699240.874979) PCAN_USBBUS1 094#80220801FB000C6A R
(699240.876217) PCAN_USBBUS1 130#0000FFFF00000413 R
(699240.876473) PCAN_USBBUS1 17C#0000000000000013 R
(699240.882744) PCAN_USBBUS1 14A#002A000007002A28 R
(699240.883555) PCAN_USBBUS1 158#0000000000000019 R
(699240.883768) PCAN_USBBUS1 191#010000A9A9A10119 R
(699240.884579) PCAN_USBBUS1 1AB#800046 R
(699240.885006) PCAN_USBBUS1 094#80220801FB000C79 R
(699240.886243) PCAN_USBBUS1 130#0000FFFF00000422 R
(699240.886499) PCAN_USBBUS1 17C#0000000000000022 R
(699240.886627) PCAN_USBBUS1 1D6#0031 R
(699240.886840) PCAN_USBBUS1 1DC#42000000000035 R
(699240.887096) PCAN_USBBUS1 1DD#006B080E00000033 R
(699240.887267) PCAN_USBBUS1 1ED#0000000039 R
(699240.889912) PCAN_USBBUS1 1AC#7FFF00000000000D R
(699240.890126) PCAN_USBBUS1 1C2#0000000000000009 R
(699240.890382) PCAN_USBBUS1 1DF#8AD000000000001B R
(699240.890638) PCAN_USBBUS1 1A4#006700000000000C R
(699240.890851) PCAN_USBBUS1 1B0#0000000000010B R
(699240.891107) PCAN_USBBUS1 31B#0000000000000018 R
(699240.891235) PCAN_USBBUS1 45B#0022 R
(699240.891406) PCAN_USBBUS1 1FB#1C R
(699240.891662) PCAN_USBBUS1 1D0#000000000000000A R
(699240.891747) PCAN_USBBUS1 444#2A R
(699240.892046) PCAN_USBBUS1 1EF#03FF007530000019 R
(699240.892302) PCAN_USBBUS1 1FA#000000000000001D R
(699240.892771) PCAN_USBBUS1 14A#002A000007002A37 R
(699240.893539) PCAN_USBBUS1 158#0000000000000028 R
(699240.893795) PCAN_USBBUS1 191#010000A9A9A10128 R
(699240.893923) PCAN_USBBUS1 1A7#0015 R
(699240.894990) PCAN_USBBUS1 094#80620801FB000C48 R
(699240.896184) PCAN_USBBUS1 221#36000000000A R
(699240.896440) PCAN_USBBUS1 130#0000FFFF00000431 R
(699240.896654) PCAN_USBBUS1 17C#0000000000000031 R
(699240.896824) PCAN_USBBUS1 296#00000007 R
(699240.896995) PCAN_USBBUS1 039#00002A R
(699240.902755) PCAN_USBBUS1 14A#002A000007002A0A R
(699240.903181) PCAN_USBBUS1 305#8054000000002D R
(699240.903565) PCAN_USBBUS1 158#0000000000000037 R
(699240.903779) PCAN_USBBUS1 191#010000A9A9A10137 R
(699240.904589) PCAN_USBBUS1 1AB#800055 R
(699240.904973) PCAN_USBBUS1 094#80620801FB000C57 R
(699240.906253) PCAN_USBBUS1 130#0000FFFF00000404 R
(699240.906509) PCAN_USBBUS1 17C#0000000000000004 R
(699240.906637) PCAN_USBBUS1 1D6#0004 R
(699240.906851) PCAN_USBBUS1 1DC#42000000000008 R
(699240.907107) PCAN_USBBUS1 1DD#006B080E00000006 R
(699240.907277) PCAN_USBBUS1 1ED#000000000C R
(699240.907533) PCAN_USBBUS1 320#0000000000000003 R
(699240.907789) PCAN_USBBUS1 324#5959000000000A81 R
(699240.908003) PCAN_USBBUS1 328#0000000000000047 R
(699240.908259) PCAN_USBBUS1 32F#0000000000000004 R
(699240.908429) PCAN_USBBUS1 339#FE29103D R
(699240.908685) PCAN_USBBUS1 34E#0055000000000009 R
(699240.908941) PCAN_USBBUS1 35E#0000000000000011 R
(699240.909155) PCAN_USBBUS1 37C#FA00000000000009 R
(699240.909411) PCAN_USBBUS1 3D7#B0C1310000000041 R
(699240.909624) PCAN_USBBUS1 400#0000020002 R
(699240.909837) PCAN_USBBUS1 40C#9F00000000000000 R
(699240.910093) PCAN_USBBUS1 1AC#7FFF00000000001C R
(699240.910349) PCAN_USBBUS1 1C2#0000000000000018 R
(699240.910605) PCAN_USBBUS1 1A4#006700000000001B R
(699240.910861) PCAN_USBBUS1 1DF#8AD000000000002A R
(699240.911075) PCAN_USBBUS1 1B0#0000000000011A R
(699240.911203) PCAN_USBBUS1 1FB#2B R
(699240.911416) PCAN_USBBUS1 454#39F0012B6000C000 R
(699240.911672) PCAN_USBBUS1 1D0#000000000000000A R
(699240.911928) PCAN_USBBUS1 465#0000000000000108 R
(699240.912184) PCAN_USBBUS1 1EF#03FF007530000028 R
(699240.912397) PCAN_USBBUS1 1FA#000000000000002C R
(699240.912653) PCAN_USBBUS1 255#0000000055552B2B R
(699240.912909) PCAN_USBBUS1 30C#000000FF00008021 R
(699240.913123) PCAN_USBBUS1 14A#002A000007002A19 R
(699240.913251) PCAN_USBBUS1 467#2005 R
(699240.913464) PCAN_USBBUS1 33D#000000082B R
(699240.913720) PCAN_USBBUS1 158#000000000000000A R
(699240.913933) PCAN_USBBUS1 191#010000A9A9A1010A R
(699240.914061) PCAN_USBBUS1 1A7#0024 R
(699240.914317) PCAN_USBBUS1 39F#000000000000002B R
(699240.915085) PCAN_USBBUS1 094#80620801FB000C66 R
(699240.916237) PCAN_USBBUS1 130#0000FFFF00000413 R
(699240.916493) PCAN_USBBUS1 17C#0000000000000013 R
(699240.922765) PCAN_USBBUS1 14A#002A000007002A28 R
(699240.923533) PCAN_USBBUS1 158#0000000000000019 R
(699240.923789) PCAN_USBBUS1 191#010000A9A9A10119 R
(699240.924600) PCAN_USBBUS1 1AB#800064 R
(699240.924984) PCAN_USBBUS1 094#80620801FB000C75 R
(699240.926221) PCAN_USBBUS1 130#0000FFFF00000422 R
(699240.926477) PCAN_USBBUS1 17C#0000000000000022 R
(699240.926605) PCAN_USBBUS1 1D6#0013 R
(699240.926861) PCAN_USBBUS1 1DC#42000000000017 R
(699240.927074) PCAN_USBBUS1 1DD#006B080E00000015 R
(699240.927288) PCAN_USBBUS1 1ED#000000001B R
(699240.929976) PCAN_USBBUS1 1AC#7FFF00000000002B R
(699240.930232) PCAN_USBBUS1 1C2#0000000000000027 R
(699240.930445) PCAN_USBBUS1 1A4#006700000000002A R
(699240.930701) PCAN_USBBUS1 1DF#8AD0000000000039 R
(699240.930914) PCAN_USBBUS1 1B0#00000000000129 R
(699240.931042) PCAN_USBBUS1 1FB#3A R
(699240.931554) PCAN_USBBUS1 1D0#000000000000000A R
(699240.932024) PCAN_USBBUS1 1EF#03FF007530000037 R
(699240.932280) PCAN_USBBUS1 1FA#000000000000003B R
(699240.932749) PCAN_USBBUS1 14A#002A000007002A37 R
(699240.933560) PCAN_USBBUS1 158#0000000000000028 R
(699240.933816) PCAN_USBBUS1 191#010000A9A9A10128 R
(699240.933944) PCAN_USBBUS1 1A7#0033 R
(699240.934968) PCAN_USBBUS1 094#80620801FB000C48 R
(699240.935352) PCAN_USBBUS1 221#360000000019 R
(699240.935522) PCAN_USBBUS1 296#00000016 R
(699240.935778) PCAN_USBBUS1 309#0000000000004026 R
(699240.936034) PCAN_USBBUS1 326#6632020000000028 R
(699240.936248) PCAN_USBBUS1 130#0000FFFF00000431 R
(699240.936504) PCAN_USBBUS1 17C#0000000000000031 R
(699240.936760) PCAN_USBBUS1 371#000000000000002B R
(699240.936930) PCAN_USBBUS1 039#000039 R
(699240.937101) PCAN_USBBUS1 372#E000002C R
(699240.937314) PCAN_USBBUS1 374#43400100C940402F R
(699240.937570) PCAN_USBBUS1 378#000000003C8000E1 R
(699240.937826) PCAN_USBBUS1 37B#0000002018000026 R
(699240.938040) PCAN_USBBUS1 396#0000004300002D R
(699240.938296) PCAN_USBBUS1 3A1#0E80100000000012 R
(699240.938552) PCAN_USBBUS1 510#0000000000000020 R
(699240.938808) PCAN_USBBUS1 516#0145B40000000021 R
(699240.942775) PCAN_USBBUS1 14A#002A000007002A0A R
(699240.943543) PCAN_USBBUS1 158#0000000000000037 R
(699240.943799) PCAN_USBBUS1 191#010000A9A9A10137 R
(699240.944567) PCAN_USBBUS1 1AB#800073 R
(699240.944951) PCAN_USBBUS1 094#80620805FB000C53 R
(699240.946231) PCAN_USBBUS1 130#0000FFFF00000404 R
(699240.946487) PCAN_USBBUS1 17C#0000000000000004 R
(699240.946615) PCAN_USBBUS1 1D6#0022 R
(699240.946871) PCAN_USBBUS1 1DC#42000000000026 R
(699240.947085) PCAN_USBBUS1 1DD#006B080E00000024 R
(699240.947298) PCAN_USBBUS1 1ED#000000002A R
(699240.950029) PCAN_USBBUS1 1AC#7FFF00000000003A R
(699240.950242) PCAN_USBBUS1 1C2#0000000000000036 R
(699240.950498) PCAN_USBBUS1 1A4#0067000000000039 R
(699240.950754) PCAN_USBBUS1 1DF#8AD000000000000C R
(699240.950967) PCAN_USBBUS1 1B0#00000000000138 R
(699240.951095) PCAN_USBBUS1 1FB#0D R
(699240.951522) PCAN_USBBUS1 1D0#000000000000000A R
(699240.952034) PCAN_USBBUS1 1EF#03FF00753000000A R
(699240.952290) PCAN_USBBUS1 1FA#000000000000000E R
(699240.952503) PCAN_USBBUS1 255#0000000055552C2A R
(699240.952759) PCAN_USBBUS1 14A#002A000007002A19 R
(699240.953570) PCAN_USBBUS1 158#000000000000000A R
(699240.953826) PCAN_USBBUS1 191#010000A9A9A1010A R
(699240.953954) PCAN_USBBUS1 1A7#0006 R
(699240.954935) PCAN_USBBUS1 094#80620805FB000C62 R
(699240.956258) PCAN_USBBUS1 130#0000FFFF00000413 R
(699240.956471) PCAN_USBBUS1 17C#0000000000000013 R
(699240.962743) PCAN_USBBUS1 14A#002A000007002A28 R
(699240.963554) PCAN_USBBUS1 158#0000000000000019 R
(699240.963810) PCAN_USBBUS1 191#010000A9A9A10119 R
(699240.964578) PCAN_USBBUS1 1AB#800046 R
(699240.964962) PCAN_USBBUS1 094#80220801FB000C79 R
(699240.966242) PCAN_USBBUS1 130#0000FFFF00000422 R
(699240.966498) PCAN_USBBUS1 17C#0000000000000022 R
(699240.966626) PCAN_USBBUS1 1D6#0031 R
(699240.966839) PCAN_USBBUS1 1DC#42000000000035 R
(699240.967095) PCAN_USBBUS1 1DD#006B080E00000033 R
(699240.967266) PCAN_USBBUS1 1ED#0000000039 R
(699240.970039) PCAN_USBBUS1 1AC#7FFF00000000000D R
(699240.970295) PCAN_USBBUS1 1C2#0000000000000009 R
(699240.970551) PCAN_USBBUS1 1A4#006700000000000C R
(699240.970807) PCAN_USBBUS1 1DF#8AD000000000001B R
(699240.971020) PCAN_USBBUS1 1B0#0000000000010B R
(699240.971148) PCAN_USBBUS1 1FB#1C R
(699240.971575) PCAN_USBBUS1 1D0#000000000000000A R
(699240.972044) PCAN_USBBUS1 1EF#03FF007530000019 R
(699240.972300) PCAN_USBBUS1 1FA#000000000000001D R
(699240.972770) PCAN_USBBUS1 14A#002A000007002A37 R
(699240.973580) PCAN_USBBUS1 158#0000000000000028 R
(699240.973794) PCAN_USBBUS1 191#010000A9A9A10128 R
(699240.973922) PCAN_USBBUS1 1A7#0015 R
(699240.974946) PCAN_USBBUS1 094#80620801FB000C48 R
(699240.975500) PCAN_USBBUS1 221#360000000028 R
(699240.975714) PCAN_USBBUS1 296#00000025 R
(699240.976226) PCAN_USBBUS1 130#0000FFFF00000431 R
(699240.976482) PCAN_USBBUS1 17C#0000000000000031 R
(699240.976823) PCAN_USBBUS1 039#00000C R
(699240.982754) PCAN_USBBUS1 14A#002A000007002A0A R
(699240.983564) PCAN_USBBUS1 158#0000000000000037 R
(699240.983777) PCAN_USBBUS1 191#010000A9A9A10137 R
(699240.984588) PCAN_USBBUS1 1AB#800055 R
(699240.984929) PCAN_USBBUS1 094#80620801FB000C57 R
(699240.986252) PCAN_USBBUS1 130#0000FFFF00000404 R
(699240.986508) PCAN_USBBUS1 17C#0000000000000004 R
(699240.986636) PCAN_USBBUS1 1D6#0004 R
(699240.986849) PCAN_USBBUS1 1DC#42000000000008 R
(699240.987105) PCAN_USBBUS1 1DD#006B080E00000006 R
(699240.987276) PCAN_USBBUS1 1ED#000000000C R
(699240.990092) PCAN_USBBUS1 1AC#7FFF00000000001C R
(699240.990348) PCAN_USBBUS1 1C2#0000000000000018 R
(699240.990604) PCAN_USBBUS1 1DF#8AD000000000002A R
(699240.990817) PCAN_USBBUS1 1EF#03FF007530000028 R
(699240.991073) PCAN_USBBUS1 1A4#006700000000001B R
(699240.991287) PCAN_USBBUS1 1B0#0000000000011A R
(699240.991415) PCAN_USBBUS1 1FB#2B R
(699240.991671) PCAN_USBBUS1 31B#0000000000000027 R
(699240.991927) PCAN_USBBUS1 1D0#000000000000000A R
(699240.992268) PCAN_USBBUS1 1FA#000000000000002C R
(699240.992524) PCAN_USBBUS1 255#0000000055552D29 R
(699240.992993) PCAN_USBBUS1 14A#002A000007002A19 R
(699240.993591) PCAN_USBBUS1 158#000000000000000A R
(699240.993804) PCAN_USBBUS1 191#010000A9A9A1010A R
(699240.993932) PCAN_USBBUS1 1A7#0024 R
(699240.994956) PCAN_USBBUS1 094#80220801FB000C6A R
(699240.996236) PCAN_USBBUS1 130#0000FFFF00000413 R
(699240.996492) PCAN_USBBUS1 17C#0000000000000013 R
(699241.002764) PCAN_USBBUS1 14A#002A000007002A28 R
(699241.003191) PCAN_USBBUS1 305#8054000000003C R
(699241.003575) PCAN_USBBUS1 158#0000000000000019 R
(699241.003788) PCAN_USBBUS1 191#010000A9A9A10119 R
(699241.004599) PCAN_USBBUS1 1AB#800064 R
(699241.004940) PCAN_USBBUS1 094#80220801FB000C79 R
(699241.006220) PCAN_USBBUS1 130#0000FFFF00000422 R
(699241.006476) PCAN_USBBUS1 17C#0000000000000022 R
(699241.006604) PCAN_USBBUS1 1D6#0013 R
(699241.006860) PCAN_USBBUS1 1DC#42000000000017 R
(699241.007073) PCAN_USBBUS1 1DD#006B080E00000015 R
(699241.007286) PCAN_USBBUS1 1ED#000000001B R
(699241.007542) PCAN_USBBUS1 320#0000000000000012 R
(699241.007756) PCAN_USBBUS1 324#5959000000000A90 R
(699241.008012) PCAN_USBBUS1 328#0000000000000056 R
(699241.008268) PCAN_USBBUS1 32F#0000000000000013 R
(699241.008438) PCAN_USBBUS1 339#FE291000 R
(699241.008652) PCAN_USBBUS1 34E#0055000000000018 R
(699241.008908) PCAN_USBBUS1 35E#0000000000000020 R
(699241.009164) PCAN_USBBUS1 37C#FA00000000000018 R
(699241.010145) PCAN_USBBUS1 1DF#8AD0000000000039 R
(699241.010358) PCAN_USBBUS1 1AC#7FFF00000000002B R
(699241.010614) PCAN_USBBUS1 1C2#0000000000000027 R
(699241.010870) PCAN_USBBUS1 1A4#006700000000002A R
(699241.011126) PCAN_USBBUS1 1EF#03FF007530000037 R
(699241.011340) PCAN_USBBUS1 1B0#00000000000129 R
(699241.011468) PCAN_USBBUS1 1FB#3A R
(699241.011766) PCAN_USBBUS1 1D0#000000000000000A R
(699241.012278) PCAN_USBBUS1 1FA#000000000000003B R
(699241.012534) PCAN_USBBUS1 30C#000000FF00008030 R
(699241.012705) PCAN_USBBUS1 33D#000000083A R
(699241.012961) PCAN_USBBUS1 14A#002A000007002A37 R
(699241.013430) PCAN_USBBUS1 39F#000000000000003A R
(699241.013686) PCAN_USBBUS1 158#0000000000000028 R
(699241.013900) PCAN_USBBUS1 191#010000A9A9A10128 R
(699241.014028) PCAN_USBBUS1 1A7#0033 R
(699241.014924) PCAN_USBBUS1 094#80220801FB000C4C R
(699241.016246) PCAN_USBBUS1 130#0000FFFF00000431 R
(699241.016502) PCAN_USBBUS1 17C#0000000000000031 R
(699241.016716) PCAN_USBBUS1 221#360000000037 R
(699241.016844) PCAN_USBBUS1 039#00001B R
(699241.017014) PCAN_USBBUS1 296#00000034 R
(699241.022774) PCAN_USBBUS1 14A#002A000007002A0A R
(699241.023585) PCAN_USBBUS1 158#0000000000000037 R
(699241.023798) PCAN_USBBUS1 191#010000A9A9A10137 R
(699241.024566) PCAN_USBBUS1 1AB#800073 R
(699241.024950) PCAN_USBBUS1 094#80220805FB000C57 R
(699241.026230) PCAN_USBBUS1 130#0000FFFF00000404 R
(699241.026486) PCAN_USBBUS1 17C#0000000000000004 R
(699241.026614) PCAN_USBBUS1 1D6#0022 R
(699241.026870) PCAN_USBBUS1 1DC#42000000000026 R
(699241.027083) PCAN_USBBUS1 1DD#006B080E00000024 R
(699241.027297) PCAN_USBBUS1 1ED#000000002A R
(699241.030113) PCAN_USBBUS1 1DF#8AD000000000000C R
(699241.030369) PCAN_USBBUS1 1AC#7FFF00000000003A R
(699241.030625) PCAN_USBBUS1 1C2#0000000000000036 R
(699241.030881) PCAN_USBBUS1 1A4#0067000000000039 R
(699241.031094) PCAN_USBBUS1 1EF#03FF00753000000A R
(699241.031350) PCAN_USBBUS1 1B0#00000000000138 R
(699241.031435) PCAN_USBBUS1 1FB#0D R
(699241.031777) PCAN_USBBUS1 1D0#000000000000000A R
(699241.032289) PCAN_USBBUS1 1FA#000000000000000E R
(699241.032502) PCAN_USBBUS1 255#0000000055552E28 R
(699241.032758) PCAN_USBBUS1 14A#002A000007002A19 R
(699241.033569) PCAN_USBBUS1 158#000000000000000A R
(699241.033825) PCAN_USBBUS1 191#010000A9A9A1010A R
(699241.033953) PCAN_USBBUS1 1A7#0006 R
(699241.034123) PCAN_USBBUS1 403#0000000001 R
(699241.034379) PCAN_USBBUS1 40F#A724000000800006 R
(699241.035105) PCAN_USBBUS1 094#80220801FA000C6B R
(699241.035574) PCAN_USBBUS1 309#0000000000004035 R
(699241.035830) PCAN_USBBUS1 326#6632020000000037 R
(699241.036043) PCAN_USBBUS1 371#000000000000003A R
(699241.036299) PCAN_USBBUS1 130#0000FFFF00000413 R
(699241.036555) PCAN_USBBUS1 17C#0000000000000013 R
(699241.036726) PCAN_USBBUS1 372#E000003B R
(699241.036982) PCAN_USBBUS1 374#43400100C940403E R
(699241.037238) PCAN_USBBUS1 378#000000003C8000F0 R
(699241.037494) PCAN_USBBUS1 37B#0000002018000035 R
(699241.037707) PCAN_USBBUS1 396#0000004300003C R
(699241.037963) PCAN_USBBUS1 405#0000000020000517 R
(699241.038177) PCAN_USBBUS1 428#0A00000145B416 R
(699241.042742) PCAN_USBBUS1 14A#002A000007002A28 R
(699241.043553) PCAN_USBBUS1 158#0000000000000019 R
(699241.043809) PCAN_USBBUS1 191#010000A9A9A10119 R
(699241.044577) PCAN_USBBUS1 1AB#800046 R
(699241.044918) PCAN_USBBUS1 094#80220801FA000C7A R
(699241.046241) PCAN_USBBUS1 130#0000FFFF00000422 R
(699241.046497) PCAN_USBBUS1 17C#0000000000000022 R
(699241.046625) PCAN_USBBUS1 1D6#0031 R
(699241.046838) PCAN_USBBUS1 1DC#42000000000035 R
(699241.047094) PCAN_USBBUS1 1DD#006B080E00000033 R
(699241.047265) PCAN_USBBUS1 1ED#0000000039 R
(699241.050123) PCAN_USBBUS1 1DF#8AD000000000001B R
(699241.050379) PCAN_USBBUS1 1AC#7FFF00000000000D R
(699241.050635) PCAN_USBBUS1 1A4#006700000000000C R
(699241.050891) PCAN_USBBUS1 1C2#0000000000000009 R
(699241.051104) PCAN_USBBUS1 1B0#0000000000010B R
(699241.051360) PCAN_USBBUS1 1EF#03FF007530000019 R
(699241.051446) PCAN_USBBUS1 1FB#1C R
(699241.051787) PCAN_USBBUS1 1D0#000000000000000A R
(699241.052299) PCAN_USBBUS1 1FA#000000000000001D R
(699241.052768) PCAN_USBBUS1 14A#002A000007002A37 R
(699241.053579) PCAN_USBBUS1 158#0000000000000028 R
(699241.053835) PCAN_USBBUS1 191#010000A9A9A10128 R
(699241.053963) PCAN_USBBUS1 1A7#0015 R
(699241.054944) PCAN_USBBUS1 094#80220801FA000C4D R
(699241.055414) PCAN_USBBUS1 221#36000000000A R
(699241.055584) PCAN_USBBUS1 296#00000007 R
(699241.056224) PCAN_USBBUS1 130#0000FFFF00000431 R
(699241.056480) PCAN_USBBUS1 17C#0000000000000031 R
(699241.056822) PCAN_USBBUS1 039#00002A R
(699241.062752) PCAN_USBBUS1 14A#002A000007002A0A R
(699241.063563) PCAN_USBBUS1 158#0000000000000037 R
(699241.063819) PCAN_USBBUS1 191#010000A9A9A10137 R
(699241.064587) PCAN_USBBUS1 1AB#800055 R
(699241.065099) PCAN_USBBUS1 094#80220801FA000C5C R
(699241.066251) PCAN_USBBUS1 130#0000FFFF00000404 R
(699241.066507) PCAN_USBBUS1 17C#0000000000000004 R
(699241.066635) PCAN_USBBUS1 1D6#0004 R
(699241.066848) PCAN_USBBUS1 1DC#42000000000008 R
(699241.067104) PCAN_USBBUS1 1DD#006B080E00000006 R
(699241.067275) PCAN_USBBUS1 1ED#000000000C R
(699241.070133) PCAN_USBBUS1 1DF#8AD000000000002A R
(699241.070389) PCAN_USBBUS1 1AC#7FFF00000000001C R
(699241.070645) PCAN_USBBUS1 1C2#0000000000000018 R
(699241.070859) PCAN_USBBUS1 1A4#006700000000001B R
(699241.071115) PCAN_USBBUS1 1EF#03FF007530000028 R
(699241.071328) PCAN_USBBUS1 1B0#0000000000011A R
(699241.071456) PCAN_USBBUS1 1FB#2B R
(699241.071797) PCAN_USBBUS1 1D0#000000000000000A R
(699241.072267) PCAN_USBBUS1 1FA#000000000000002C R
(699241.072523) PCAN_USBBUS1 255#0000000055552F27 R
(699241.072779) PCAN_USBBUS1 14A#002A000007002A19 R
(699241.073589) PCAN_USBBUS1 158#000000000000000A R
(699241.073803) PCAN_USBBUS1 191#010000A9A9A1010A R
(699241.073973) PCAN_USBBUS1 1A7#0024 R
(699241.074912) PCAN_USBBUS1 094#80220801FA000C6B R
(699241.076235) PCAN_USBBUS1 130#0000FFFF00000413 R
(699241.076491) PCAN_USBBUS1 17C#0000000000000013 R
(699241.082763) PCAN_USBBUS1 14A#002A000007002A28 R
(699241.083573) PCAN_USBBUS1 158#0000000000000019 R
(699241.083829) PCAN_USBBUS1 191#010000A9A9A10119 R
(699241.084597) PCAN_USBBUS1 1AB#800064 R
(699241.084939) PCAN_USBBUS1 094#80220801FB000C79 R
(699241.086219) PCAN_USBBUS1 130#0000FFFF00000422 R
(699241.086475) PCAN_USBBUS1 17C#0000000000000022 R
(699241.086645) PCAN_USBBUS1 1D6#0013 R
(699241.086859) PCAN_USBBUS1 1DC#42000000000017 R
(699241.087072) PCAN_USBBUS1 1DD#006B080E00000015 R
(699241.087285) PCAN_USBBUS1 1ED#000000001B R
(699241.090144) PCAN_USBBUS1 1DF#8AD0000000000039 R
(699241.090357) PCAN_USBBUS1 1AC#7FFF00000000002B R
(699241.090613) PCAN_USBBUS1 1C2#0000000000000027 R
(699241.090869) PCAN_USBBUS1 1EF#03FF007530000037 R
(699241.091125) PCAN_USBBUS1 1FA#000000000000003B R
(699241.091338) PCAN_USBBUS1 1A4#006700000000002A R
(699241.091594) PCAN_USBBUS1 1B0#00000000000129 R
(699241.091680) PCAN_USBBUS1 1FB#3A R
(699241.091936) PCAN_USBBUS1 31B#0000000000000036 R
(699241.092192) PCAN_USBBUS1 1D0#000000000000000A R
(699241.092746) PCAN_USBBUS1 14A#002A000007002A37 R
(699241.093600) PCAN_USBBUS1 158#0000000000000028 R
(699241.093813) PCAN_USBBUS1 191#010000A9A9A10128 R
(699241.093941) PCAN_USBBUS1 1A7#0033 R
(699241.094922) PCAN_USBBUS1 094#80220801FA000C4D R
(699241.095562) PCAN_USBBUS1 221#360000000019 R
(699241.095733) PCAN_USBBUS1 296#00000016 R
(699241.096245) PCAN_USBBUS1 130#0000FFFF00000431 R
(699241.096501) PCAN_USBBUS1 17C#0000000000000031 R
(699241.096800) PCAN_USBBUS1 039#000039 R
(699241.102773) PCAN_USBBUS1 14A#002A000007002A0A R
(699241.103200) PCAN_USBBUS1 305#8054000000000F R
(699241.103584) PCAN_USBBUS1 158#0000000000000037 R
(699241.103797) PCAN_USBBUS1 191#010000A9A9A10137 R
(699241.104565) PCAN_USBBUS1 1AB#800073 R
(699241.104906) PCAN_USBBUS1 094#80220801FB000C5B R
(699241.106229) PCAN_USBBUS1 35E#000000000000003F R
(699241.106485) PCAN_USBBUS1 130#0000FFFF00000404 R
(699241.106741) PCAN_USBBUS1 17C#0000000000000004 R
(699241.106869) PCAN_USBBUS1 1D6#0022 R
(699241.107082) PCAN_USBBUS1 1DC#42000000000026 R
(699241.107338) PCAN_USBBUS1 1DD#006B080E00000024 R
(699241.107509) PCAN_USBBUS1 1ED#000000002A R
(699241.107765) PCAN_USBBUS1 320#0000000000000021 R
(699241.108021) PCAN_USBBUS1 324#5959000000000AAF R
(699241.108277) PCAN_USBBUS1 328#0000000000000065 R
(699241.108490) PCAN_USBBUS1 32F#0000000000000022 R
(699241.108661) PCAN_USBBUS1 339#FE29101F R
(699241.108917) PCAN_USBBUS1 34E#0055000000000027 R
(699241.109173) PCAN_USBBUS1 37C#FA00000000000027 R
(699241.109386) PCAN_USBBUS1 3D7#B0C104C151C12210 R
(699241.109642) PCAN_USBBUS1 661#3F206A0301766A24 R
(699241.110112) PCAN_USBBUS1 1DF#8AD000000000000C R
(699241.110368) PCAN_USBBUS1 1EF#03FF00753000000A R
(699241.110624) PCAN_USBBUS1 1AC#7FFF00000000003A R
(699241.110880) PCAN_USBBUS1 1C2#0000000000000036 R
(699241.111093) PCAN_USBBUS1 1A4#0067000000000039 R
(699241.111349) PCAN_USBBUS1 1FA#000000000000000E R
(699241.111562) PCAN_USBBUS1 1B0#00000000000138 R
(699241.111690) PCAN_USBBUS1 1FB#0D R
(699241.112031) PCAN_USBBUS1 1D0#000000000000000A R
(699241.112501) PCAN_USBBUS1 255#0000000055553026 R
(699241.112757) PCAN_USBBUS1 30C#000000FF00008003 R
(699241.113013) PCAN_USBBUS1 14A#002A000007002A19 R
(699241.113354) PCAN_USBBUS1 33D#000000080D R
(699241.113610) PCAN_USBBUS1 158#000000000000000A R
(699241.113823) PCAN_USBBUS1 191#010000A9A9A1010A R
(699241.113951) PCAN_USBBUS1 1A7#0006 R
(699241.114207) PCAN_USBBUS1 39F#000000000000000D R
(699241.114890) PCAN_USBBUS1 094#80220801FB000C6A R
(699241.116255) PCAN_USBBUS1 130#0000FFFF00000413 R
(699241.116511) PCAN_USBBUS1 17C#0000000000000013 R
(699241.122741) PCAN_USBBUS1 14A#002A000007002A28 R
(699241.123594) PCAN_USBBUS1 158#0000000000000019 R
(699241.123807) PCAN_USBBUS1 191#010000A9A9A10119 R
(699241.124575) PCAN_USBBUS1 1AB#800046 R
(699241.124917) PCAN_USBBUS1 094#80220801FA000C7A R
(699241.126239) PCAN_USBBUS1 130#0000FFFF00000422 R
(699241.126495) PCAN_USBBUS1 17C#0000000000000022 R
(699241.126623) PCAN_USBBUS1 1D6#0031 R
(699241.126837) PCAN_USBBUS1 1DC#42000000000035 R
(699241.127093) PCAN_USBBUS1 1DD#006B080E00000033 R
(699241.127263) PCAN_USBBUS1 1ED#0000000039 R
(699241.130122) PCAN_USBBUS1 1DF#8AD000000000001B R
(699241.130378) PCAN_USBBUS1 1EF#03FF007530000019 R
(699241.130634) PCAN_USBBUS1 1AC#7FFF00000000000D R
(699241.130847) PCAN_USBBUS1 1C2#0000000000000009 R
(699241.131103) PCAN_USBBUS1 1A4#006700000000000C R
(699241.131359) PCAN_USBBUS1 1FA#000000000000001D R
(699241.131573) PCAN_USBBUS1 1B0#0000000000010B R
(699241.131701) PCAN_USBBUS1 1FB#1C R
(699241.132042) PCAN_USBBUS1 1D0#000000000000000A R
(699241.132767) PCAN_USBBUS1 14A#002A000007002A37 R
(699241.133578) PCAN_USBBUS1 158#0000000000000028 R
(699241.133834) PCAN_USBBUS1 191#010000A9A9A10128 R
(699241.133962) PCAN_USBBUS1 1A7#0015 R
(699241.134900) PCAN_USBBUS1 094#80220801FB000C4C R
(699241.136180) PCAN_USBBUS1 221#360000000028 R
(699241.136436) PCAN_USBBUS1 130#0000FFFF00000431 R
(699241.136692) PCAN_USBBUS1 17C#0000000000000031 R
(699241.136820) PCAN_USBBUS1 039#00000C R
(699241.136991) PCAN_USBBUS1 296#00000025 R
(699241.137247) PCAN_USBBUS1 309#0000000000004008 R
(699241.137503) PCAN_USBBUS1 326#663202000000000A R
(699241.137759) PCAN_USBBUS1 371#000000000000000D R
(699241.137930) PCAN_USBBUS1 372#E000000E R
(699241.138186) PCAN_USBBUS1 374#43400100C9404001 R
(699241.138399) PCAN_USBBUS1 378#000000003C8000C3 R
(699241.138655) PCAN_USBBUS1 37B#0000002018000008 R
(699241.138911) PCAN_USBBUS1 396#0000004300000F R
(699241.139167) PCAN_USBBUS1 3A1#0E80100000000021 R
(699241.142751) PCAN_USBBUS1 14A#002A000007002A0A R
(699241.143604) PCAN_USBBUS1 158#0000000000000037 R
(699241.143818) PCAN_USBBUS1 191#010000A9A9A10137 R
(699241.144586) PCAN_USBBUS1 1AB#800055 R
(699241.144927) PCAN_USBBUS1 094#80220801FB000C5B R
(699241.146250) PCAN_USBBUS1 130#0000FFFF00000404 R
(699241.146506) PCAN_USBBUS1 17C#0000000000000004 R
(699241.146634) PCAN_USBBUS1 1D6#0004 R
(699241.146847) PCAN_USBBUS1 1DC#42000000000008 R
(699241.147103) PCAN_USBBUS1 1DD#006C080E00000005 R
(699241.147274) PCAN_USBBUS1 1ED#000000000C R
(699241.150132) PCAN_USBBUS1 1DF#8AD000000000002A R
(699241.150388) PCAN_USBBUS1 1EF#03FF007530000028 R
(699241.150602) PCAN_USBBUS1 1AC#7FFF00000000001C R
(699241.150858) PCAN_USBBUS1 1C2#0000000000000018 R
(699241.151114) PCAN_USBBUS1 1A4#006700000000001B R
(699241.151370) PCAN_USBBUS1 1FA#000000000000002C R
(699241.151583) PCAN_USBBUS1 1B0#0000000000011A R
(699241.151711) PCAN_USBBUS1 1FB#2B R
(699241.152010) PCAN_USBBUS1 1D0#000000000000000A R
(699241.152479) PCAN_USBBUS1 255#0000000055553125 R
(699241.152778) PCAN_USBBUS1 14A#002A000007002A19 R
(699241.153588) PCAN_USBBUS1 158#000000000000000A R
(699241.153844) PCAN_USBBUS1 191#010000A9A9A1010A R
(699241.153972) PCAN_USBBUS1 1A7#0024 R
(699241.154911) PCAN_USBBUS1 094#80220801FA000C6B R
(699241.156233) PCAN_USBBUS1 130#0000FFFF00000413 R
(699241.156489) PCAN_USBBUS1 17C#0000000000000013 R
(699241.162761) PCAN_USBBUS1 14A#002A000007002A28 R
(699241.163572) PCAN_USBBUS1 158#0000000000000019 R
(699241.163828) PCAN_USBBUS1 191#010000A9A9A10119 R
(699241.164596) PCAN_USBBUS1 1AB#800064 R
(699241.164895) PCAN_USBBUS1 094#80220801FB000C79 R
(699241.166260) PCAN_USBBUS1 130#0000FFFF00000422 R
(699241.166473) PCAN_USBBUS1 17C#0000000000000022 R
(699241.166644) PCAN_USBBUS1 1D6#0013 R
(699241.166857) PCAN_USBBUS1 1DC#42000000000017 R
(699241.167071) PCAN_USBBUS1 1DD#006C080E00000014 R
(699241.167284) PCAN_USBBUS1 1ED#000000001B R
(699241.170143) PCAN_USBBUS1 1DF#8AD0000000000039 R
(699241.170356) PCAN_USBBUS1 1EF#03FF007530000037 R
(699241.170612) PCAN_USBBUS1 1AC#7FFF00000000002B R
(699241.170868) PCAN_USBBUS1 1C2#0000000000000027 R
(699241.171124) PCAN_USBBUS1 1A4#006700000000002A R
(699241.171337) PCAN_USBBUS1 1FA#000000000000003B R
(699241.171593) PCAN_USBBUS1 1B0#00000000000129 R
(699241.171679) PCAN_USBBUS1 1FB#3A R
(699241.172020) PCAN_USBBUS1 1D0#000000000000000A R
(699241.172745) PCAN_USBBUS1 14A#002A000007002A37 R
(699241.173599) PCAN_USBBUS1 158#0000000000000028 R
(699241.173855) PCAN_USBBUS1 191#010000A9A9A10128 R
(699241.173983) PCAN_USBBUS1 1A7#0033 R
(699241.174879) PCAN_USBBUS1 094#80220801FB000C4C R
(699241.175305) PCAN_USBBUS1 221#360000000037 R
(699241.175476) PCAN_USBBUS1 296#00000034 R
(699241.176244) PCAN_USBBUS1 130#0000FFFF00000431 R
(699241.176500) PCAN_USBBUS1 17C#0000000000000031 R
(699241.176798) PCAN_USBBUS1 039#00001B R
(699241.182772) PCAN_USBBUS1 14A#002A000007002A0A R
(699241.183582) PCAN_USBBUS1 158#0000000000000037 R
(699241.183838) PCAN_USBBUS1 191#010000A9A9A10137 R
(699241.184564) PCAN_USBBUS1 1AB#800073 R
(699241.184905) PCAN_USBBUS1 094#80220801FB000C5B R
(699241.186228) PCAN_USBBUS1 130#0000FFFF00000404 R
(699241.186484) PCAN_USBBUS1 17C#0000000000000004 R
(699241.186612) PCAN_USBBUS1 1D6#0022 R
(699241.186868) PCAN_USBBUS1 1DC#42000000000026 R
(699241.187081) PCAN_USBBUS1 1DD#006C080E00000023 R
(699241.187294) PCAN_USBBUS1 1ED#000000002A R
(699241.190110) PCAN_USBBUS1 1DF#8AD000000000000C R
(699241.190366) PCAN_USBBUS1 1EF#03FF00753000000A R
(699241.190622) PCAN_USBBUS1 1AC#7FFF00000000003A R
(699241.190836) PCAN_USBBUS1 1C2#0000000000000036 R
(699241.191092) PCAN_USBBUS1 1A4#0067000000000039 R
(699241.191348) PCAN_USBBUS1 1FA#000000000000000E R
(699241.191561) PCAN_USBBUS1 1B0#00000000000138 R
(699241.191817) PCAN_USBBUS1 31B#0000000000000009 R
(699241.192073) PCAN_USBBUS1 1D0#000000000000000A R
(699241.192201) PCAN_USBBUS1 444#39 R
(699241.192329) PCAN_USBBUS1 45B#0031 R
(699241.192542) PCAN_USBBUS1 255#0000000055553224 R
(699241.192670) PCAN_USBBUS1 1FB#0D R
(699241.192969) PCAN_USBBUS1 14A#002A000007002A19 R
(699241.193609) PCAN_USBBUS1 158#000000000000000A R
(699241.193822) PCAN_USBBUS1 191#010000A9A9A1010A R
(699241.193993) PCAN_USBBUS1 1A7#0006 R
(699241.194889) PCAN_USBBUS1 094#80220801FB000C6A R
(699241.196254) PCAN_USBBUS1 130#0000FFFF00000413 R
(699241.196510) PCAN_USBBUS1 17C#0000000000000013 R
(699241.202739) PCAN_USBBUS1 14A#002A000007002A28 R
(699241.203166) PCAN_USBBUS1 305#8054000000001E R
(699241.203635) PCAN_USBBUS1 158#0000000000000019 R
(699241.203891) PCAN_USBBUS1 191#010000A9A9A10119 R
(699241.204574) PCAN_USBBUS1 1AB#800046 R
(699241.204915) PCAN_USBBUS1 094#80220801FB000C79 R
(699241.206238) PCAN_USBBUS1 130#0000FFFF00000422 R
(699241.206494) PCAN_USBBUS1 17C#0000000000000022 R
(699241.206622) PCAN_USBBUS1 1D6#0031 R
(699241.206878) PCAN_USBBUS1 1DC#42000000000035 R
(699241.207091) PCAN_USBBUS1 1DD#006C080E00000032 R
(699241.207305) PCAN_USBBUS1 1ED#0000000039 R
(699241.207518) PCAN_USBBUS1 320#0000000000000030 R
(699241.207774) PCAN_USBBUS1 324#5959000000000ABE R
(699241.208030) PCAN_USBBUS1 328#0000000000000074 R
(699241.208286) PCAN_USBBUS1 32F#0000000000000031 R
(699241.208457) PCAN_USBBUS1 339#FE29102E R
(699241.208670) PCAN_USBBUS1 34E#0055000000000036 R
(699241.208926) PCAN_USBBUS1 35E#0000000000000002 R
(699241.209182) PCAN_USBBUS1 37C#FA00000000000036 R
(699241.209353) PCAN_USBBUS1 400#0000020011 R
(699241.209609) PCAN_USBBUS1 40C#A000C15510000015 R
(699241.209865) PCAN_USBBUS1 454#39F0012B6000C01F R
(699241.210121) PCAN_USBBUS1 465#0000000000000117 R
(699241.210334) PCAN_USBBUS1 1DF#8AD000000000001B R
(699241.210590) PCAN_USBBUS1 1AC#7FFF00000000000D R
(699241.210846) PCAN_USBBUS1 1C2#0000000000000009 R
(699241.211059) PCAN_USBBUS1 1EF#03FF007530000019 R
(699241.211315) PCAN_USBBUS1 1FA#000000000000001D R
(699241.211571) PCAN_USBBUS1 1A4#006700000000000C R
(699241.211785) PCAN_USBBUS1 1B0#0000000000010B R
(699241.211913) PCAN_USBBUS1 1FB#1C R
(699241.212169) PCAN_USBBUS1 30C#000000FF00008012 R
(699241.212425) PCAN_USBBUS1 1D0#000000000000000A R
(699241.212553) PCAN_USBBUS1 467#2014 R
(699241.212723) PCAN_USBBUS1 33D#000000081C R
(699241.212979) PCAN_USBBUS1 14A#002A000007002A37 R
(699241.213449) PCAN_USBBUS1 39F#000000000000001C R
(699241.213662) PCAN_USBBUS1 158#0000000000000028 R
(699241.213918) PCAN_USBBUS1 191#010000A9A9A10128 R
(699241.214046) PCAN_USBBUS1 1A7#0015 R
(699241.214899) PCAN_USBBUS1 094#80220801FB000C4C R
(699241.215667) PCAN_USBBUS1 221#36000000000A R
(699241.215881) PCAN_USBBUS1 296#00000007 R
(699241.216265) PCAN_USBBUS1 130#0000FFFF00000431 R
(699241.216478) PCAN_USBBUS1 17C#0000000000000031 R
(699241.216819) PCAN_USBBUS1 039#00002A R
(699241.222750) PCAN_USBBUS1 14A#002A000007002A0A R
(699241.223603) PCAN_USBBUS1 158#0000000000000037 R
(699241.223816) PCAN_USBBUS1 191#010000A9A9A10137 R
(699241.224584) PCAN_USBBUS1 1AB#800055 R
(699241.224883) PCAN_USBBUS1 094#80220801FB000C5B R
(699241.226248) PCAN_USBBUS1 130#0000FFFF00000404 R
(699241.226504) PCAN_USBBUS1 17C#0000000000000004 R
(699241.226632) PCAN_USBBUS1 1D6#0004 R
(699241.226846) PCAN_USBBUS1 1DC#42000000000008 R
(699241.227102) PCAN_USBBUS1 1DD#006C080E00000005 R
(699241.227272) PCAN_USBBUS1 1ED#000000000C R
(699241.230131) PCAN_USBBUS1 1DF#8AD000000000002A R
(699241.230387) PCAN_USBBUS1 1EF#03FF007530000028 R
(699241.230600) PCAN_USBBUS1 1AC#7FFF00000000001C R
(699241.230856) PCAN_USBBUS1 1C2#0000000000000018 R
(699241.231112) PCAN_USBBUS1 1A4#006700000000001B R
(699241.231368) PCAN_USBBUS1 1FA#000000000000002C R
(699241.231582) PCAN_USBBUS1 1B0#0000000000011A R
(699241.231710) PCAN_USBBUS1 1FB#2B R
(699241.232051) PCAN_USBBUS1 1D0#000000000000000A R
(699241.232563) PCAN_USBBUS1 255#0000000055553323 R
(699241.232776) PCAN_USBBUS1 14A#002A000007002A19 R
(699241.233630) PCAN_USBBUS1 158#000000000000000A R
(699241.233843) PCAN_USBBUS1 191#010000A9A9A1010A R
(699241.233971) PCAN_USBBUS1 1A7#0024 R
(699241.234867) PCAN_USBBUS1 094#80220805FB000C66 R
(699241.235422) PCAN_USBBUS1 309#0000000000004017 R
(699241.235635) PCAN_USBBUS1 326#6731020000000019 R
(699241.235891) PCAN_USBBUS1 371#000000000000001C R
(699241.236062) PCAN_USBBUS1 372#E000001D R
(699241.236318) PCAN_USBBUS1 130#0000FFFF00000413 R
(699241.236574) PCAN_USBBUS1 17C#0000000000000013 R
(699241.236787) PCAN_USBBUS1 374#43400100C9404010 R
(699241.237043) PCAN_USBBUS1 378#000000003C8000D2 R
(699241.237299) PCAN_USBBUS1 37B#0000002018000017 R
(699241.237512) PCAN_USBBUS1 396#0000004300001E R
(699241.242760) PCAN_USBBUS1 14A#002A000007002A28 R
(699241.243613) PCAN_USBBUS1 158#0000000000000019 R
(699241.243827) PCAN_USBBUS1 191#010000A9A9A10119 R
(699241.244595) PCAN_USBBUS1 1AB#800064 R
(699241.244893) PCAN_USBBUS1 094#80220801FA000C7A R
(699241.246259) PCAN_USBBUS1 130#0000FFFF00000422 R
(699241.246515) PCAN_USBBUS1 17C#0000000000000022 R
(699241.246643) PCAN_USBBUS1 1D6#0013 R
(699241.246856) PCAN_USBBUS1 1DC#42000000000017 R
(699241.247112) PCAN_USBBUS1 1DD#006C080E00000014 R
(699241.247283) PCAN_USBBUS1 1ED#000000001B R
(699241.250099) PCAN_USBBUS1 1DF#8AD0000000000039 R
(699241.250355) PCAN_USBBUS1 1EF#03FF007530000037 R
(699241.250611) PCAN_USBBUS1 1FA#000000000000003B R
(699241.250867) PCAN_USBBUS1 1AC#7FFF00000000002B R
(699241.251123) PCAN_USBBUS1 1A4#006700000000002A R
(699241.251336) PCAN_USBBUS1 1B0#00000000000129 R
(699241.251592) PCAN_USBBUS1 1C2#0000000000000027 R
(699241.251677) PCAN_USBBUS1 1FB#3A R
(699241.251933) PCAN_USBBUS1 1D0#000000000000000A R
(699241.252744) PCAN_USBBUS1 14A#002A000007002A37 R
(699241.253597) PCAN_USBBUS1 158#0000000000000028 R
(699241.253853) PCAN_USBBUS1 191#010000A9A9A10128 R
(699241.253981) PCAN_USBBUS1 1A7#0033 R
(699241.254877) PCAN_USBBUS1 094#80620801FA000C49 R
(699241.256157) PCAN_USBBUS1 221#360000000019 R
(699241.256413) PCAN_USBBUS1 130#0000FFFF00000431 R
(699241.256669) PCAN_USBBUS1 17C#0000000000000031 R
(699241.256797) PCAN_USBBUS1 039#000039 R
(699241.256968) PCAN_USBBUS1 296#00000016 R
(699241.262770) PCAN_USBBUS1 14A#002A000007002A0A R
(699241.263624) PCAN_USBBUS1 158#0000000000000037 R
(699241.263837) PCAN_USBBUS1 191#010000A9A9A10137 R
(699241.264562) PCAN_USBBUS1 1AB#800073 R
(699241.264904) PCAN_USBBUS1 094#80620801FB000C57 R
(699241.266226) PCAN_USBBUS1 130#0000FFFF00000404 R
(699241.266482) PCAN_USBBUS1 17C#0000000000000004 R
(699241.266610) PCAN_USBBUS1 1D6#0022 R
(699241.266866) PCAN_USBBUS1 1DC#42000000000026 R
(699241.267080) PCAN_USBBUS1 1DD#006C080E00000023 R
(699241.267293) PCAN_USBBUS1 1ED#000000002A R
(699241.270109) PCAN_USBBUS1 1DF#8AD000000000000C R
(699241.270365) PCAN_USBBUS1 1EF#03FF00753000000A R
(699241.270621) PCAN_USBBUS1 1FA#000000000000000E R
(699241.270834) PCAN_USBBUS1 1AC#7FFF00000000003A R
(699241.271090) PCAN_USBBUS1 1A4#0067000000000039 R
(699241.271304) PCAN_USBBUS1 1B0#00000000000138 R
(699241.271560) PCAN_USBBUS1 1C2#0000000000000036 R
(699241.271688) PCAN_USBBUS1 1FB#0D R
(699241.271944) PCAN_USBBUS1 1D0#000000000000000A R
(699241.272626) PCAN_USBBUS1 255#0000000055553422 R
(699241.272882) PCAN_USBBUS1 14A#002A000007002A19 R
(699241.273608) PCAN_USBBUS1 158#000000000000000A R
(699241.273864) PCAN_USBBUS1 191#010000A9A9A1010A R
(699241.273992) PCAN_USBBUS1 1A7#0006 R
(699241.274845) PCAN_USBBUS1 094#80220801FB000C6A R
(699241.276253) PCAN_USBBUS1 130#0000FFFF00000413 R
(699241.276509) PCAN_USBBUS1 17C#0000000000000013 R
(699241.282738) PCAN_USBBUS1 14A#002A000007002A28 R
(699241.283591) PCAN_USBBUS1 158#0000000000000019 R
(699241.283847) PCAN_USBBUS1 191#010000A9A9A10119 R
(699241.284573) PCAN_USBBUS1 1AB#800046 R
(699241.284914) PCAN_USBBUS1 094#80220801FC000C78 R
(699241.286237) PCAN_USBBUS1 130#0000FFFF00000422 R
(699241.286493) PCAN_USBBUS1 17C#0000000000000022 R
(699241.286621) PCAN_USBBUS1 1D6#0031 R
(699241.286834) PCAN_USBBUS1 1DC#42000000000035 R
(699241.287090) PCAN_USBBUS1 1DD#006C080E00000032 R
(699241.287261) PCAN_USBBUS1 1ED#0000000039 R
(699241.290119) PCAN_USBBUS1 1DF#8AD000000000001B R
(699241.290375) PCAN_USBBUS1 1EF#03FF007530000019 R
(699241.290631) PCAN_USBBUS1 1FA#000000000000001D R
(699241.290845) PCAN_USBBUS1 1AC#7FFF00000000000D R
(699241.291101) PCAN_USBBUS1 1A4#006700000000000C R
(699241.291357) PCAN_USBBUS1 1B0#0000000000010B R
(699241.291570) PCAN_USBBUS1 1C2#0000000000000009 R
(699241.291698) PCAN_USBBUS1 1FB#1C R
(699241.291954) PCAN_USBBUS1 31B#0000000000000018 R
(699241.292210) PCAN_USBBUS1 1D0#000000000000000A R
(699241.292935) PCAN_USBBUS1 14A#002A000007002A37 R
(699241.293618) PCAN_USBBUS1 158#0000000000000028 R
(699241.293874) PCAN_USBBUS1 191#010000A9A9A10128 R
(699241.294002) PCAN_USBBUS1 1A7#0015 R
(699241.294855) PCAN_USBBUS1 094#80220801FC000C4B R
(699241.295282) PCAN_USBBUS1 221#360000000028 R
(699241.295453) PCAN_USBBUS1 296#00000025 R
(699241.296263) PCAN_USBBUS1 130#0000FFFF00000431 R
(699241.296477) PCAN_USBBUS1 17C#0000000000000031 R
(699241.296818) PCAN_USBBUS1 039#00000C R
(699241.302749) PCAN_USBBUS1 14A#002A000007002A0A R
(699241.303175) PCAN_USBBUS1 305#8054000000002D R
(699241.303602) PCAN_USBBUS1 158#0000000000000037 R
(699241.303858) PCAN_USBBUS1 191#010000A9A9A10137 R
(699241.304583) PCAN_USBBUS1 1AB#800055 R
(699241.304882) PCAN_USBBUS1 094#80220801FC000C5A R
(699241.306204) PCAN_USBBUS1 35E#0000000000000011 R
(699241.306460) PCAN_USBBUS1 130#0000FFFF00000404 R
(699241.306716) PCAN_USBBUS1 17C#0000000000000004 R
(699241.306844) PCAN_USBBUS1 1D6#0004 R
(699241.307058) PCAN_USBBUS1 1DC#42000000000008 R
(699241.307314) PCAN_USBBUS1 1DD#006C080E00000005 R
(699241.307527) PCAN_USBBUS1 1ED#000000000C R
(699241.307740) PCAN_USBBUS1 320#0000000000000003 R
(699241.307996) PCAN_USBBUS1 324#5959000000000A81 R
(699241.308252) PCAN_USBBUS1 328#0000000000000047 R
(699241.308508) PCAN_USBBUS1 32F#0000000000000004 R
(699241.308679) PCAN_USBBUS1 339#FE29103D R
(699241.308892) PCAN_USBBUS1 34E#0055000000000009 R
(699241.309148) PCAN_USBBUS1 37C#FA00000000000009 R
(699241.309404) PCAN_USBBUS1 3D7#B0C131000000006F R
(699241.310130) PCAN_USBBUS1 1DF#8AD000000000002A R
(699241.310343) PCAN_USBBUS1 1EF#03FF007530000028 R
(699241.310599) PCAN_USBBUS1 1FA#000000000000002C R
(699241.310855) PCAN_USBBUS1 1AC#7FFF00000000001C R
(699241.311111) PCAN_USBBUS1 1C2#0000000000000018 R
(699241.311367) PCAN_USBBUS1 1A4#006700000000001B R
(699241.311452) PCAN_USBBUS1 1FB#2B R
(699241.311708) PCAN_USBBUS1 30C#000000FF00008021 R
(699241.311922) PCAN_USBBUS1 1B0#0000000000011A R
(699241.312135) PCAN_USBBUS1 33D#000000082B R
(699241.312434) PCAN_USBBUS1 1D0#000000000000000A R
(699241.312946) PCAN_USBBUS1 14A#002A000007002A19 R
(699241.313372) PCAN_USBBUS1 255#0000000055553521 R
(699241.313628) PCAN_USBBUS1 158#000000000000000A R
(699241.313884) PCAN_USBBUS1 191#010000A9A9A1010A R
(699241.314012) PCAN_USBBUS1 1A7#0024 R
(699241.314268) PCAN_USBBUS1 39F#000000000000002B R
(699241.314823) PCAN_USBBUS1 094#80220801FA000C6B R
(699241.316231) PCAN_USBBUS1 130#0000FFFF00000413 R
(699241.316487) PCAN_USBBUS1 17C#0000000000000013 R
(699241.322759) PCAN_USBBUS1 14A#002A000007002A28 R
(699241.323612) PCAN_USBBUS1 158#0000000000000019 R
(699241.323868) PCAN_USBBUS1 191#010000A9A9A10119 R
(699241.324594) PCAN_USBBUS1 1AB#800064 R
(699241.324892) PCAN_USBBUS1 094#80220805FB000C75 R
(699241.326257) PCAN_USBBUS1 130#0000FFFF00000422 R
(699241.326513) PCAN_USBBUS1 17C#0000000000000022 R
(699241.326641) PCAN_USBBUS1 1D6#0013 R
(699241.326855) PCAN_USBBUS1 1DC#42000000000017 R
(699241.327111) PCAN_USBBUS1 1DD#006C080E00000014 R
(699241.327281) PCAN_USBBUS1 1ED#000000001B R
(699241.330097) PCAN_USBBUS1 1DF#8AD0000000000039 R
(699241.330353) PCAN_USBBUS1 1EF#03FF007530000037 R
(699241.330609) PCAN_USBBUS1 1FA#000000000000003B R
(699241.330865) PCAN_USBBUS1 1AC#7FFF00000000002B R
(699241.331121) PCAN_USBBUS1 1C2#0000000000000027 R
(699241.331335) PCAN_USBBUS1 1A4#006700000000002A R
(699241.331591) PCAN_USBBUS1 1B0#00000000000129 R
(699241.331676) PCAN_USBBUS1 1FB#3A R
(699241.332273) PCAN_USBBUS1 1D0#000000000000000A R
(699241.332743) PCAN_USBBUS1 14A#002A000007002A37 R
(699241.333639) PCAN_USBBUS1 158#0000000000000028 R
(699241.333852) PCAN_USBBUS1 191#010000A9A9A10128 R
(699241.333980) PCAN_USBBUS1 1A7#0033 R
(699241.334193) PCAN_USBBUS1 403#0000000010 R
(699241.334449) PCAN_USBBUS1 40F#B011C10008000012 R
(699241.334876) PCAN_USBBUS1 094#80220801FB000C4C R
(699241.335516) PCAN_USBBUS1 221#360000000037 R
(699241.335687) PCAN_USBBUS1 296#00000034 R
(699241.335943) PCAN_USBBUS1 309#0000000000004026 R
(699241.336199) PCAN_USBBUS1 326#6731020000000028 R
(699241.336455) PCAN_USBBUS1 130#0000FFFF00000431 R
(699241.336711) PCAN_USBBUS1 17C#0000000000000031 R
(699241.336839) PCAN_USBBUS1 039#00001B R
(699241.337095) PCAN_USBBUS1 371#000000000000002B R
(699241.337265) PCAN_USBBUS1 372#E000002C R
(699241.337521) PCAN_USBBUS1 374#43400100C940402F R
(699241.337777) PCAN_USBBUS1 378#000000003C8000E1 R
(699241.337991) PCAN_USBBUS1 37B#0000002018000026 R
(699241.338247) PCAN_USBBUS1 396#0000004300002D R
(699241.338503) PCAN_USBBUS1 3A1#0E80100000000030 R
(699241.338716) PCAN_USBBUS1 405#0000000020000526 R
(699241.338972) PCAN_USBBUS1 428#0A00000145B425 R
(699241.342769) PCAN_USBBUS1 14A#002A000007002A0A R
(699241.343623) PCAN_USBBUS1 158#0000000000000037 R
(699241.343879) PCAN_USBBUS1 191#010000A9A9A10137 R
(699241.344561) PCAN_USBBUS1 1AB#800073 R
(699241.344903) PCAN_USBBUS1 094#80220801FB000C5B R
(699241.346268) PCAN_USBBUS1 130#0000FFFF00000404 R
(699241.346481) PCAN_USBBUS1 17C#0000000000000004 R
(699241.346652) PCAN_USBBUS1 1D6#0022 R
(699241.346865) PCAN_USBBUS1 1DC#42000000000026 R
(699241.347121) PCAN_USBBUS1 1DD#006C080E00000023 R
(699241.347292) PCAN_USBBUS1 1ED#000000002A R
(699241.350108) PCAN_USBBUS1 1DF#8AD000000000000C R
(699241.350364) PCAN_USBBUS1 1EF#03FF00753000000A R
(699241.350620) PCAN_USBBUS1 1FA#000000000000000E R
(699241.350833) PCAN_USBBUS1 1AC#7FFF00000000003A R
(699241.351089) PCAN_USBBUS1 1C2#0000000000000036 R
(699241.351345) PCAN_USBBUS1 1A4#0067000000000039 R
(699241.351473) PCAN_USBBUS1 1FB#0D R
(699241.351686) PCAN_USBBUS1 1B0#00000000000138 R
(699241.352326) PCAN_USBBUS1 1D0#000000000000000A R
(699241.352796) PCAN_USBBUS1 14A#002A000007002A19 R
(699241.353265) PCAN_USBBUS1 255#0000000055553620 R
(699241.353649) PCAN_USBBUS1 158#000000000000000A R
(699241.353862) PCAN_USBBUS1 191#010000A9A9A1010A R
(699241.353990) PCAN_USBBUS1 1A7#0006 R
(699241.354844) PCAN_USBBUS1 094#80220801FB000C6A R
(699241.356252) PCAN_USBBUS1 130#0000FFFF00000413 R
(699241.356508) PCAN_USBBUS1 17C#0000000000000013 R
(699241.362764) PCAN_USBBUS1 14A#002A000007002A28 R
(699241.363660) PCAN_USBBUS1 158#0000000000000019 R
(699241.363873) PCAN_USBBUS1 191#010000A9A9A10119 R
(699241.364599) PCAN_USBBUS1 1AB#800046 R
(699241.364940) PCAN_USBBUS1 094#80220801FB000C79 R
(699241.366263) PCAN_USBBUS1 130#0000FFFF00000422 R
(699241.366519) PCAN_USBBUS1 17C#0000000000000022 R
(699241.366647) PCAN_USBBUS1 1D6#0031 R
(699241.366860) PCAN_USBBUS1 1DC#42000000000035 R
(699241.367116) PCAN_USBBUS1 1DD#006C080E00000032 R
(699241.367329) PCAN_USBBUS1 1ED#0000000039 R
(699241.370145) PCAN_USBBUS1 1DF#8AD000000000001B R
(699241.370401) PCAN_USBBUS1 1EF#03FF007530000019 R
(699241.370657) PCAN_USBBUS1 1FA#000000000000001D R
(699241.370913) PCAN_USBBUS1 1AC#7FFF00000000000D R
(699241.371169) PCAN_USBBUS1 1C2#0000000000000009 R
(699241.371382) PCAN_USBBUS1 1A4#006700000000000C R
(699241.371510) PCAN_USBBUS1 1FB#1C R
(699241.371724) PCAN_USBBUS1 1B0#0000000000010B R
(699241.372364) PCAN_USBBUS1 1D0#000000000000000A R
(699241.372876) PCAN_USBBUS1 14A#002A000007002A37 R
(699241.373686) PCAN_USBBUS1 158#0000000000000028 R
(699241.373900) PCAN_USBBUS1 191#010000A9A9A10128 R
(699241.374028) PCAN_USBBUS1 1A7#0015 R
(699241.374838) PCAN_USBBUS1 094#80620801FB000C48 R
(699241.376161) PCAN_USBBUS1 221#36000000000A R
(699241.376417) PCAN_USBBUS1 130#0000FFFF00000431 R
(699241.376673) PCAN_USBBUS1 17C#0000000000000031 R
(699241.376801) PCAN_USBBUS1 039#00002A R
(699241.376972) PCAN_USBBUS1 296#00000007 R
(699241.382774) PCAN_USBBUS1 14A#002A000007002A0A R
(699241.383670) PCAN_USBBUS1 158#0000000000000037 R
(699241.383884) PCAN_USBBUS1 191#010000A9A9A10137 R
(699241.384609) PCAN_USBBUS1 1AB#800055 R
(699241.384908) PCAN_USBBUS1 094#80220801FB000C5B R
(699241.386273) PCAN_USBBUS1 130#0000FFFF00000404 R
(699241.386529) PCAN_USBBUS1 17C#0000000000000004 R
(699241.386657) PCAN_USBBUS1 1D6#0004 R
(699241.386870) PCAN_USBBUS1 1DC#42000000000008 R
(699241.387126) PCAN_USBBUS1 1DD#006C080E00000005 R
(699241.387297) PCAN_USBBUS1 1ED#000000000C R
(699241.390155) PCAN_USBBUS1 1DF#8AD000000000002A R
(699241.390369) PCAN_USBBUS1 1EF#03FF007530000028 R
(699241.390625) PCAN_USBBUS1 1FA#000000000000002C R
(699241.390923) PCAN_USBBUS1 1AC#7FFF00000000001C R
(699241.391179) PCAN_USBBUS1 1C2#0000000000000018 R
(699241.391435) PCAN_USBBUS1 1A4#006700000000001B R
(699241.391563) PCAN_USBBUS1 1FB#2B R
(699241.391777) PCAN_USBBUS1 1B0#0000000000011A R
(699241.392033) PCAN_USBBUS1 31B#0000000000000027 R
(699241.392417) PCAN_USBBUS1 1D0#000000000000000A R
(699241.392929) PCAN_USBBUS1 14A#002A000007002A19 R
(699241.393355) PCAN_USBBUS1 255#000000005555371F R
(699241.393654) PCAN_USBBUS1 158#000000000000000A R
(699241.393910) PCAN_USBBUS1 191#010000A9A9A1010A R
(699241.394038) PCAN_USBBUS1 1A7#0024 R
(699241.394849) PCAN_USBBUS1 094#80220801FB000C6A R
(699241.396257) PCAN_USBBUS1 130#0000FFFF00000413 R
(699241.396513) PCAN_USBBUS1 17C#0000000000000013 R
(699241.402785) PCAN_USBBUS1 14A#002A000007002A28 R
(699241.403211) PCAN_USBBUS1 305#8054000000003C R
(699241.403638) PCAN_USBBUS1 158#0000000000000019 R
(699241.403894) PCAN_USBBUS1 191#010000A9A9A10119 R
(699241.404619) PCAN_USBBUS1 1AB#800064 R
(699241.404918) PCAN_USBBUS1 094#80220801FA000C7A R
(699241.406283) PCAN_USBBUS1 130#0000FFFF00000422 R
(699241.406539) PCAN_USBBUS1 17C#0000000000000022 R
(699241.406667) PCAN_USBBUS1 1D6#0013 R
(699241.406881) PCAN_USBBUS1 1DC#42000000000017 R
(699241.407137) PCAN_USBBUS1 1DD#006C080E00000014 R
(699241.407307) PCAN_USBBUS1 1ED#000000001B R
(699241.407563) PCAN_USBBUS1 320#0000000000000012 R
(699241.407819) PCAN_USBBUS1 324#5959000000000A90 R
(699241.408033) PCAN_USBBUS1 328#0000000000000056 R
(699241.408289) PCAN_USBBUS1 32F#0000000000000013 R
(699241.408459) PCAN_USBBUS1 339#FE291000 R
(699241.408715) PCAN_USBBUS1 34E#0055000000000018 R
(699241.408971) PCAN_USBBUS1 35E#0000000000000020 R
(699241.409227) PCAN_USBBUS1 37C#FA00000000000018 R
(699241.410166) PCAN_USBBUS1 1DF#8AD0000000000039 R
(699241.410379) PCAN_USBBUS1 1EF#03FF007530000037 R
(699241.410635) PCAN_USBBUS1 1FA#000000000000003B R
(699241.410891) PCAN_USBBUS1 30C#000000FF00008030 R
(699241.411147) PCAN_USBBUS1 1AC#7FFF00000000002B R
(699241.411403) PCAN_USBBUS1 1C2#0000000000000027 R
(699241.411659) PCAN_USBBUS1 1A4#006700000000002A R
(699241.411744) PCAN_USBBUS1 1FB#3A R
(699241.411958) PCAN_USBBUS1 33D#000000083A R
(699241.412171) PCAN_USBBUS1 1B0#00000000000129 R
(699241.412427) PCAN_USBBUS1 39F#000000000000003A R
(699241.412726) PCAN_USBBUS1 1D0#000000000000000A R
(699241.412982) PCAN_USBBUS1 14A#002A000007002A37 R
(699241.413664) PCAN_USBBUS1 158#0000000000000028 R
(699241.413920) PCAN_USBBUS1 191#010000A9A9A10128 R
(699241.414048) PCAN_USBBUS1 1A7#0033 R
(699241.414816) PCAN_USBBUS1 094#80220801FB000C4C R
(699241.415456) PCAN_USBBUS1 221#360000000019 R
(699241.415627) PCAN_USBBUS1 296#00000016 R
(699241.416267) PCAN_USBBUS1 130#0000FFFF00000431 R
(699241.416523) PCAN_USBBUS1 17C#0000000000000031 R
(699241.416864) PCAN_USBBUS1 039#000039 R
(699241.422795) PCAN_USBBUS1 14A#002A000007002A0A R
(699241.423648) PCAN_USBBUS1 158#0000000000000037 R
(699241.423904) PCAN_USBBUS1 191#010000A9A9A10137 R
(699241.424587) PCAN_USBBUS1 1AB#800073 R
(699241.424928) PCAN_USBBUS1 094#80220801FB000C5B R
(699241.426294) PCAN_USBBUS1 130#0000FFFF00000404 R
(699241.426550) PCAN_USBBUS1 17C#0000000000000004 R
(699241.426678) PCAN_USBBUS1 1D6#0022 R
(699241.426891) PCAN_USBBUS1 1DC#42000000000026 R
(699241.427147) PCAN_USBBUS1 1DD#006C080E00000023 R
(699241.427318) PCAN_USBBUS1 1ED#000000002A R
(699241.430134) PCAN_USBBUS1 1DF#8AD000000000000C R
(699241.430390) PCAN_USBBUS1 1EF#03FF00753000000A R
(699241.430646) PCAN_USBBUS1 1FA#000000000000000E R
(699241.430859) PCAN_USBBUS1 1FB#0D R
(699241.431115) PCAN_USBBUS1 1AC#7FFF00000000003A R
(699241.431328) PCAN_USBBUS1 1A4#0067000000000039 R
(699241.431584) PCAN_USBBUS1 1B0#00000000000138 R
(699241.431797) PCAN_USBBUS1 1C2#0000000000000036 R
(699241.432267) PCAN_USBBUS1 1D0#000000000000000A R
(699241.432992) PCAN_USBBUS1 14A#002A000007002A19 R
(699241.433461) PCAN_USBBUS1 255#000000005555381E R
(699241.433675) PCAN_USBBUS1 158#000000000000000A R
(699241.433931) PCAN_USBBUS1 191#010000A9A9A1010A R
(699241.434059) PCAN_USBBUS1 1A7#0006 R
(699241.434827) PCAN_USBBUS1 094#80220801FA000C6B R
(699241.436235) PCAN_USBBUS1 309#0000000000004035 R
(699241.436448) PCAN_USBBUS1 130#0000FFFF00000413 R
(699241.436704) PCAN_USBBUS1 17C#0000000000000013 R
(699241.436960) PCAN_USBBUS1 326#6632020000000037 R
(699241.437216) PCAN_USBBUS1 371#000000000000003A R
(699241.437387) PCAN_USBBUS1 372#E000003B R
(699241.437600) PCAN_USBBUS1 374#43400100C940403E R
(699241.437856) PCAN_USBBUS1 378#000000003C8000F0 R
(699241.438112) PCAN_USBBUS1 37B#0000002018000035 R
(699241.438368) PCAN_USBBUS1 396#0000004300003C R
(699241.438581) PCAN_USBBUS1 510#000000000000003F R
(699241.438837) PCAN_USBBUS1 516#0145B40000000030 R
(699241.442763) PCAN_USBBUS1 14A#002A000007002A28 R
(699241.443659) PCAN_USBBUS1 158#0000000000000019 R
(699241.443915) PCAN_USBBUS1 191#010000A9A9A10119 R
(699241.444597) PCAN_USBBUS1 1AB#800046 R
(699241.444939) PCAN_USBBUS1 094#80220801FA000C7A R
(699241.446261) PCAN_USBBUS1 130#0000FFFF00000422 R
(699241.446517) PCAN_USBBUS1 17C#0000000000000022 R
(699241.446645) PCAN_USBBUS1 1D6#0031 R
(699241.446901) PCAN_USBBUS1 1DC#42000000000035 R
(699241.447115) PCAN_USBBUS1 1DD#006C080E00000032 R
(699241.447328) PCAN_USBBUS1 1ED#0000000039 R
(699241.450144) PCAN_USBBUS1 1DF#8AD000000000001B R
(699241.450400) PCAN_USBBUS1 1EF#03FF007530000019 R
(699241.450656) PCAN_USBBUS1 1FA#000000000000001D R
(699241.450869) PCAN_USBBUS1 1FB#1C R
(699241.451125) PCAN_USBBUS1 1AC#7FFF00000000000D R
(699241.451381) PCAN_USBBUS1 1C2#0000000000000009 R
(699241.451595) PCAN_USBBUS1 1A4#006700000000000C R
(699241.451851) PCAN_USBBUS1 1B0#0000000000010B R
(699241.452533) PCAN_USBBUS1 1D0#000000000000000A R
(699241.453045) PCAN_USBBUS1 14A#002A000007002A37 R
(699241.453685) PCAN_USBBUS1 158#0000000000000028 R
(699241.453898) PCAN_USBBUS1 191#010000A9A9A10128 R
(699241.454026) PCAN_USBBUS1 1A7#0015 R
(699241.454837) PCAN_USBBUS1 094#80220801FB000C4C R
(699241.455520) PCAN_USBBUS1 221#360000000028 R
(699241.455690) PCAN_USBBUS1 296#00000025 R
(699241.456288) PCAN_USBBUS1 130#0000FFFF00000431 R
(699241.456544) PCAN_USBBUS1 17C#0000000000000031 R
(699241.456842) PCAN_USBBUS1 039#00000C R
(699241.462773) PCAN_USBBUS1 14A#002A000007002A0A R
(699241.463669) PCAN_USBBUS1 158#0000000000000037 R
(699241.463925) PCAN_USBBUS1 191#010000A9A9A10137 R
(699241.464608) PCAN_USBBUS1 1AB#800055 R
(699241.464906) PCAN_USBBUS1 094#80220801FC000C5A R
(699241.466272) PCAN_USBBUS1 130#0000FFFF00000404 R
(699241.466528) PCAN_USBBUS1 17C#0000000000000004 R
(699241.466656) PCAN_USBBUS1 1D6#0004 R
(699241.466869) PCAN_USBBUS1 1DC#42000000000008 R
(699241.467125) PCAN_USBBUS1 1DD#006C080E00000005 R
(699241.467338) PCAN_USBBUS1 1ED#000000000C R
(699241.470112) PCAN_USBBUS1 1DF#8AD000000000002A R
(699241.470368) PCAN_USBBUS1 1EF#03FF007530000028 R
(699241.470624) PCAN_USBBUS1 1FA#000000000000002C R
(699241.471093) PCAN_USBBUS1 1AC#7FFF00000000001C R
(699241.471349) PCAN_USBBUS1 1C2#0000000000000018 R
(699241.471605) PCAN_USBBUS1 1A4#006700000000001B R
(699241.471733) PCAN_USBBUS1 1FB#2B R
(699241.471946) PCAN_USBBUS1 1B0#0000000000011A R
(699241.472586) PCAN_USBBUS1 1D0#000000000000000A R
(699241.472842) PCAN_USBBUS1 14A#002A000007002A19 R
(699241.473525) PCAN_USBBUS1 255#000000005555391D R
(699241.473781) PCAN_USBBUS1 158#000000000000000A R
(699241.473994) PCAN_USBBUS1 191#010000A9A9A1010A R
(699241.474122) PCAN_USBBUS1 1A7#0024 R
(699241.474805) PCAN_USBBUS1 094#80220801FB000C6A R
(699241.476255) PCAN_USBBUS1 130#0000FFFF00000413 R
(699241.476511) PCAN_USBBUS1 17C#0000000000000013 R
(699241.482783) PCAN_USBBUS1 14A#002A000007002A28 R
(699241.483679) PCAN_USBBUS1 158#0000000000000019 R
(699241.483893) PCAN_USBBUS1 191#010000A9A9A10119 R
(699241.484618) PCAN_USBBUS1 1AB#800064 R
(699241.484917) PCAN_USBBUS1 094#80220801FA000C7A R
(699241.486282) PCAN_USBBUS1 130#0000FFFF00000422 R
(699241.486538) PCAN_USBBUS1 17C#0000000000000022 R
(699241.486666) PCAN_USBBUS1 1D6#0013 R
(699241.486879) PCAN_USBBUS1 1DC#42000000000017 R
(699241.487135) PCAN_USBBUS1 1DD#006C080E00000014 R
(699241.487306) PCAN_USBBUS1 1ED#000000001B R
(699241.490122) PCAN_USBBUS1 1DF#8AD0000000000039 R
(699241.490378) PCAN_USBBUS1 1EF#03FF007530000037 R
(699241.490634) PCAN_USBBUS1 1FA#000000000000003B R
(699241.490847) PCAN_USBBUS1 45B#0004 R
(699241.491146) PCAN_USBBUS1 1AC#7FFF00000000002B R
(699241.491402) PCAN_USBBUS1 1C2#0000000000000027 R
(699241.491658) PCAN_USBBUS1 1A4#006700000000002A R
(699241.491743) PCAN_USBBUS1 1FB#3A R
(699241.491999) PCAN_USBBUS1 1B0#00000000000129 R
(699241.492213) PCAN_USBBUS1 31B#0000000000000036 R
(699241.492341) PCAN_USBBUS1 444#0C R
(699241.492639) PCAN_USBBUS1 1D0#000000000000000A R
(699241.492895) PCAN_USBBUS1 14A#002A000007002A37 R
(699241.493663) PCAN_USBBUS1 158#0000000000000028 R
(699241.493919) PCAN_USBBUS1 191#010000A9A9A10128 R
(699241.494047) PCAN_USBBUS1 1A7#0033 R
(699241.494815) PCAN_USBBUS1 094#80220801FB000C4C R
(699241.496223) PCAN_USBBUS1 221#360000000037 R
(699241.496436) PCAN_USBBUS1 130#0000FFFF00000431 R
(699241.496692) PCAN_USBBUS1 17C#0000000000000031 R
(699241.496863) PCAN_USBBUS1 039#00001B R
(699241.497034) PCAN_USBBUS1 296#00000034 R
(699241.502794) PCAN_USBBUS1 14A#002A000007002A0A R
(699241.503220) PCAN_USBBUS1 305#8054000000000F R
(699241.503690) PCAN_USBBUS1 158#0000000000000037 R
(699241.503903) PCAN_USBBUS1 191#010000A9A9A10137 R
(699241.504586) PCAN_USBBUS1 1AB#800073 R
(699241.504927) PCAN_USBBUS1 094#80220801FB000C5B R
(699241.506250) PCAN_USBBUS1 35E#000000000000003F R
(699241.506506) PCAN_USBBUS1 130#0000FFFF00000404 R
(699241.506762) PCAN_USBBUS1 17C#0000000000000004 R
(699241.506890) PCAN_USBBUS1 1D6#0022 R
(699241.507146) PCAN_USBBUS1 1DC#42000000000026 R
(699241.507359) PCAN_USBBUS1 1DD#006C080E00000023 R
(699241.507572) PCAN_USBBUS1 1ED#000000002A R
(699241.507786) PCAN_USBBUS1 320#0000000000000021 R
(699241.508042) PCAN_USBBUS1 324#5959000000000AAF R
(699241.508298) PCAN_USBBUS1 328#0000000000000065 R
(699241.508554) PCAN_USBBUS1 32F#0000000000000022 R
(699241.508724) PCAN_USBBUS1 339#FE29101F R
(699241.508938) PCAN_USBBUS1 34E#0055000000000027 R
(699241.509194) PCAN_USBBUS1 37C#FA00000000000027 R
(699241.509450) PCAN_USBBUS1 3D7#B0C104C151C1223E R
(699241.509620) PCAN_USBBUS1 400#0000020020 R
(699241.509834) PCAN_USBBUS1 40C#A1534848464B3728 R
(699241.510090) PCAN_USBBUS1 454#39F0012B6000C02E R
(699241.510346) PCAN_USBBUS1 1DF#8AD000000000000C R
(699241.510559) PCAN_USBBUS1 1EF#03FF00753000000A R
(699241.510815) PCAN_USBBUS1 1FA#000000000000000E R
(699241.510943) PCAN_USBBUS1 1FB#0D R
(699241.511199) PCAN_USBBUS1 30C#000000FF00008003 R
(699241.511412) PCAN_USBBUS1 1AC#7FFF00000000003A R
(699241.511668) PCAN_USBBUS1 1A4#0067000000000039 R
(699241.511882) PCAN_USBBUS1 1B0#00000000000138 R
(699241.512138) PCAN_USBBUS1 1C2#0000000000000036 R
(699241.512351) PCAN_USBBUS1 33D#000000080D R
(699241.512564) PCAN_USBBUS1 1D0#000000000000000A R
(699241.512820) PCAN_USBBUS1 39F#000000000000000D R
(699241.513076) PCAN_USBBUS1 14A#002A000007002A19 R
(699241.513332) PCAN_USBBUS1 465#0000000000000126 R
(699241.513460) PCAN_USBBUS1 467#2023 R
(699241.513674) PCAN_USBBUS1 255#0000000055553A1C R
(699241.513930) PCAN_USBBUS1 158#000000000000000A R
(699241.514186) PCAN_USBBUS1 191#010000A9A9A1010A R
(699241.514314) PCAN_USBBUS1 1A7#0006 R
(699241.515039) PCAN_USBBUS1 094#80220801FB000C6A R
(699241.516276) PCAN_USBBUS1 130#0000FFFF00000413 R
(699241.516532) PCAN_USBBUS1 17C#0000000000000013 R
(699241.522761) PCAN_USBBUS1 14A#002A000007002A28 R
(699241.523657) PCAN_USBBUS1 158#0000000000000019 R
(699241.523913) PCAN_USBBUS1 191#010000A9A9A10119 R
(699241.524596) PCAN_USBBUS1 1AB#800046 R
(699241.524937) PCAN_USBBUS1 094#80220801FB000C79 R
(699241.526260) PCAN_USBBUS1 130#0000FFFF00000422 R
(699241.526516) PCAN_USBBUS1 17C#0000000000000022 R
(699241.526644) PCAN_USBBUS1 1D6#0031 R
(699241.526900) PCAN_USBBUS1 1DC#42000000000035 R
(699241.527113) PCAN_USBBUS1 1DD#006C080E00000032 R
(699241.527327) PCAN_USBBUS1 1ED#0000000039 R
(699241.530143) PCAN_USBBUS1 1DF#8AD000000000001B R
(699241.530356) PCAN_USBBUS1 1EF#03FF007530000019 R
(699241.530612) PCAN_USBBUS1 1FA#000000000000001D R
(699241.530825) PCAN_USBBUS1 1FB#1C R
(699241.531252) PCAN_USBBUS1 1AC#7FFF00000000000D R
(699241.531465) PCAN_USBBUS1 1C2#0000000000000009 R
(699241.531721) PCAN_USBBUS1 1A4#006700000000000C R
(699241.532020) PCAN_USBBUS1 1B0#0000000000010B R
(699241.532703) PCAN_USBBUS1 1D0#000000000000000A R
(699241.532959) PCAN_USBBUS1 14A#002A000007002A37 R
(699241.533684) PCAN_USBBUS1 158#0000000000000028 R
(699241.533940) PCAN_USBBUS1 191#010000A9A9A10128 R
(699241.534068) PCAN_USBBUS1 1A7#0015 R
(699241.534793) PCAN_USBBUS1 094#80220801FB000C4C R
(699241.535391) PCAN_USBBUS1 221#36000000000A R
(699241.535561) PCAN_USBBUS1 296#00000007 R
(699241.535817) PCAN_USBBUS1 309#0000000000004008 R
(699241.536031) PCAN_USBBUS1 326#663202000000000A R
(699241.536287) PCAN_USBBUS1 130#0000FFFF00000431 R
(699241.536543) PCAN_USBBUS1 17C#0000000000000031 R
(699241.536799) PCAN_USBBUS1 371#000000000000000D R
(699241.536927) PCAN_USBBUS1 039#00002A R
(699241.537097) PCAN_USBBUS1 372#E000000E R
(699241.537353) PCAN_USBBUS1 374#43400100C9404001 R
(699241.537609) PCAN_USBBUS1 378#000000003C8000C3 R
(699241.537865) PCAN_USBBUS1 37B#0000002018000008 R
(699241.538078) PCAN_USBBUS1 396#0000004300000F R
(699241.538334) PCAN_USBBUS1 3A1#0E80100000000003 R
(699241.542772) PCAN_USBBUS1 14A#002A000007002A0A R
(699241.543668) PCAN_USBBUS1 158#0000000000000037 R
(699241.543924) PCAN_USBBUS1 191#010000A9A9A10137 R
(699241.544606) PCAN_USBBUS1 1AB#800055 R
(699241.544905) PCAN_USBBUS1 094#80620801FA000C58 R
(699241.546270) PCAN_USBBUS1 130#0000FFFF00000404 R
(699241.546526) PCAN_USBBUS1 17C#0000000000000004 R
(699241.546654) PCAN_USBBUS1 1D6#0004 R
(699241.546910) PCAN_USBBUS1 1DC#42000000000008 R
(699241.547124) PCAN_USBBUS1 1DD#006C080E00000005 R
(699241.547337) PCAN_USBBUS1 1ED#000000000C R
(699241.550110) PCAN_USBBUS1 1DF#8AD000000000002A R
(699241.550366) PCAN_USBBUS1 1EF#03FF007530000028 R
(699241.550622) PCAN_USBBUS1 1FA#000000000000002C R
(699241.550836) PCAN_USBBUS1 1FB#2B R
(699241.551262) PCAN_USBBUS1 1AC#7FFF00000000001C R
(699241.551518) PCAN_USBBUS1 1C2#0000000000000018 R
(699241.551774) PCAN_USBBUS1 1A4#006700000000001B R
(699241.552030) PCAN_USBBUS1 1B0#0000000000011A R
(699241.552756) PCAN_USBBUS1 1D0#000000000000000A R
(699241.553012) PCAN_USBBUS1 14A#002A000007002A19 R
(699241.553694) PCAN_USBBUS1 255#0000000055553B1B R
(699241.553950) PCAN_USBBUS1 158#000000000000000A R
(699241.554164) PCAN_USBBUS1 191#010000A9A9A1010A R
(699241.554292) PCAN_USBBUS1 1A7#0024 R
(699241.554932) PCAN_USBBUS1 094#80220801FB000C6A R
(699241.556297) PCAN_USBBUS1 130#0000FFFF00000413 R
(699241.556510) PCAN_USBBUS1 17C#0000000000000013 R
(699241.562782) PCAN_USBBUS1 14A#002A000007002A28 R
(699241.563678) PCAN_USBBUS1 158#0000000000000019 R
(699241.563934) PCAN_USBBUS1 191#010000A9A9A10119 R
(699241.564574) PCAN_USBBUS1 1AB#800064 R
(699241.564915) PCAN_USBBUS1 094#80220801FB000C79 R
(699241.566281) PCAN_USBBUS1 130#0000FFFF00000422 R
(699241.566537) PCAN_USBBUS1 17C#0000000000000022 R
(699241.566665) PCAN_USBBUS1 1D6#0013 R
(699241.566878) PCAN_USBBUS1 1DC#42000000000017 R
(699241.567134) PCAN_USBBUS1 1DD#006C080E00000014 R
(699241.567305) PCAN_USBBUS1 1ED#000000001B R
(699241.570121) PCAN_USBBUS1 1DF#8AD0000000000039 R
(699241.570377) PCAN_USBBUS1 1EF#03FF007530000037 R
(699241.570633) PCAN_USBBUS1 1FA#000000000000003B R
(699241.571102) PCAN_USBBUS1 1FB#3A R
(699241.571358) PCAN_USBBUS1 1AC#7FFF00000000002B R
(699241.571614) PCAN_USBBUS1 1C2#0000000000000027 R
(699241.571827) PCAN_USBBUS1 1A4#006700000000002A R
(699241.572083) PCAN_USBBUS1 1B0#00000000000129 R
(699241.572809) PCAN_USBBUS1 1D0#000000000000000A R
(699241.573022) PCAN_USBBUS1 14A#002A000007002A37 R
(699241.573705) PCAN_USBBUS1 158#0000000000000028 R
(699241.573918) PCAN_USBBUS1 191#010000A9A9A10128 R
(699241.574046) PCAN_USBBUS1 1A7#0033 R
(699241.574771) PCAN_USBBUS1 094#80220801FA000C4D R
(699241.575539) PCAN_USBBUS1 221#360000000019 R
(699241.575710) PCAN_USBBUS1 296#00000016 R
(699241.576265) PCAN_USBBUS1 130#0000FFFF00000431 R
(699241.576521) PCAN_USBBUS1 17C#0000000000000031 R
(699241.576691) PCAN_USBBUS1 039#000039 R
(699241.582792) PCAN_USBBUS1 14A#002A000007002A0A R
(699241.583688) PCAN_USBBUS1 158#0000000000000037 R
(699241.583902) PCAN_USBBUS1 191#010000A9A9A10137 R
(699241.584584) PCAN_USBBUS1 1AB#800073 R
(699241.584926) PCAN_USBBUS1 094#80220801FA000C5C R
(699241.586291) PCAN_USBBUS1 130#0000FFFF00000404 R
(699241.586547) PCAN_USBBUS1 17C#0000000000000004 R
(699241.586675) PCAN_USBBUS1 1D6#0022 R
(699241.586888) PCAN_USBBUS1 1DC#42000000000026 R
(699241.587144) PCAN_USBBUS1 1DD#006C080E00000023 R
(699241.587315) PCAN_USBBUS1 1ED#000000002A R
(699241.590131) PCAN_USBBUS1 1DF#8AD000000000000C R
(699241.590344) PCAN_USBBUS1 1EF#03FF00753000000A R
(699241.590600) PCAN_USBBUS1 1FA#000000000000000E R
(699241.590814) PCAN_USBBUS1 1FB#0D R
(699241.591368) PCAN_USBBUS1 1AC#7FFF00000000003A R
(699241.591582) PCAN_USBBUS1 1C2#0000000000000036 R
(699241.591838) PCAN_USBBUS1 1A4#0067000000000039 R
(699241.592094) PCAN_USBBUS1 31B#0000000000000009 R
(699241.592307) PCAN_USBBUS1 1B0#00000000000138 R
(699241.592819) PCAN_USBBUS1 14A#002A000007002A19 R
(699241.593288) PCAN_USBBUS1 1D0#000000000000000A R
(699241.593715) PCAN_USBBUS1 158#000000000000000A R
(699241.593928) PCAN_USBBUS1 191#010000A9A9A1010A R
(699241.594056) PCAN_USBBUS1 1A7#0006 R
(699241.594312) PCAN_USBBUS1 255#0000000055553C1A R
(699241.594910) PCAN_USBBUS1 094#80220801FA000C6B R
(699241.596275) PCAN_USBBUS1 130#0000FFFF00000413 R
(699241.596531) PCAN_USBBUS1 17C#0000000000000013 R
(699241.602717) PCAN_USBBUS1 305#8054000000001E R
(699241.603016) PCAN_USBBUS1 14A#002A000007002A28 R
(699241.603699) PCAN_USBBUS1 158#0000000000000019 R
(699241.603912) PCAN_USBBUS1 191#010000A9A9A10119 R
(699241.604595) PCAN_USBBUS1 1AB#800046 R
(699241.604936) PCAN_USBBUS1 094#80220801FA000C7A R
(699241.606259) PCAN_USBBUS1 130#0000FFFF00000422 R
(699241.606515) PCAN_USBBUS1 17C#0000000000000022 R
(699241.606685) PCAN_USBBUS1 1D6#0031 R
(699241.606899) PCAN_USBBUS1 1DC#42000000000035 R
(699241.607112) PCAN_USBBUS1 1DD#006C080E00000032 R
(699241.607325) PCAN_USBBUS1 1ED#0000000039 R
(699241.607581) PCAN_USBBUS1 320#0000000000000030 R
(699241.607795) PCAN_USBBUS1 324#5959000000000ABE R
(699241.608051) PCAN_USBBUS1 328#0000000000000074 R
(699241.608307) PCAN_USBBUS1 32F#0000000000000031 R
(699241.608477) PCAN_USBBUS1 339#FE29102E R
(699241.608733) PCAN_USBBUS1 34E#0055000000000036 R
(699241.608947) PCAN_USBBUS1 35E#0000000000000002 R
(699241.609203) PCAN_USBBUS1 37C#FA00000000000036 R
(699241.609459) PCAN_USBBUS1 661#3F300301766A033F R
(699241.610141) PCAN_USBBUS1 1DF#8AD000000000001B R
(699241.610397) PCAN_USBBUS1 1EF#03FF007530000019 R
(699241.610653) PCAN_USBBUS1 1FA#000000000000001D R
(699241.610909) PCAN_USBBUS1 30C#000000FF00008012 R
(699241.611037) PCAN_USBBUS1 1FB#1C R
(699241.611208) PCAN_USBBUS1 33D#000000081C R
(699241.611464) PCAN_USBBUS1 1AC#7FFF00000000000D R
(699241.611720) PCAN_USBBUS1 1C2#0000000000000009 R
(699241.611933) PCAN_USBBUS1 1A4#006700000000000C R
(699241.612189) PCAN_USBBUS1 39F#000000000000001C R
(699241.612403) PCAN_USBBUS1 1B0#0000000000010B R
(699241.612957) PCAN_USBBUS1 14A#002A000007002A37 R
(699241.613427) PCAN_USBBUS1 1D0#000000000000000A R
(699241.613683) PCAN_USBBUS1 158#0000000000000028 R
(699241.613939) PCAN_USBBUS1 191#010000A9A9A10128 R
(699241.614067) PCAN_USBBUS1 1A7#0015 R
(699241.614749) PCAN_USBBUS1 094#80620801FB000C48 R
(699241.616285) PCAN_USBBUS1 130#0000FFFF00000431 R
(699241.616541) PCAN_USBBUS1 17C#0000000000000031 R
(699241.616669) PCAN_USBBUS1 039#00000C R
(699241.616883) PCAN_USBBUS1 221#360000000028 R
(699241.617053) PCAN_USBBUS1 296#00000025 R
(699241.622771) PCAN_USBBUS1 14A#002A000007002A0A R
(699241.623709) PCAN_USBBUS1 158#0000000000000037 R
(699241.623922) PCAN_USBBUS1 191#010000A9A9A10137 R
(699241.624776) PCAN_USBBUS1 094#80620801FA000C58 R
(699241.624904) PCAN_USBBUS1 1AB#800055 R
(699241.626269) PCAN_USBBUS1 130#0000FFFF00000404 R
(699241.626525) PCAN_USBBUS1 17C#0000000000000004 R
(699241.626653) PCAN_USBBUS1 1D6#0004 R
(699241.626909) PCAN_USBBUS1 1DC#42000000000008 R
(699241.627122) PCAN_USBBUS1 1DD#006C080E00000005 R
(699241.627336) PCAN_USBBUS1 1ED#000000000C R
(699241.630152) PCAN_USBBUS1 1DF#8AD000000000002A R
(699241.630365) PCAN_USBBUS1 1EF#03FF007530000028 R
(699241.630621) PCAN_USBBUS1 1FA#000000000000002C R
(699241.630834) PCAN_USBBUS1 1FB#2B R
(699241.631432) PCAN_USBBUS1 1AC#7FFF00000000001C R
(699241.631688) PCAN_USBBUS1 1C2#0000000000000018 R
(699241.631944) PCAN_USBBUS1 1A4#006700000000001B R
(699241.632200) PCAN_USBBUS1 1B0#0000000000011A R
(699241.632882) PCAN_USBBUS1 14A#002A000007002A19 R
(699241.633394) PCAN_USBBUS1 1D0#000000000000000A R
(699241.633693) PCAN_USBBUS1 158#000000000000000A R
(699241.633949) PCAN_USBBUS1 191#010000A9A9A1010A R
(699241.634077) PCAN_USBBUS1 1A7#0024 R
(699241.634333) PCAN_USBBUS1 255#0000000055553D19 R
(699241.634504) PCAN_USBBUS1 403#000000002F R
(699241.634760) PCAN_USBBUS1 40F#B100160414020025 R
(699241.634973) PCAN_USBBUS1 094#80620801FA000C67 R
(699241.635570) PCAN_USBBUS1 309#0000000000004017 R
(699241.635826) PCAN_USBBUS1 326#6632020000000019 R
(699241.636082) PCAN_USBBUS1 371#000000000000001C R
(699241.636296) PCAN_USBBUS1 130#0000FFFF00000413 R
(699241.636552) PCAN_USBBUS1 17C#0000000000000013 R
(699241.636722) PCAN_USBBUS1 372#E000001D R
(699241.636978) PCAN_USBBUS1 374#43400100C9404010 R
(699241.637234) PCAN_USBBUS1 378#000000003C8000D2 R
(699241.637448) PCAN_USBBUS1 37B#0000002018000017 R
(699241.637704) PCAN_USBBUS1 396#0000004300001E R
(699241.637960) PCAN_USBBUS1 405#0000000020000535 R
(699241.638173) PCAN_USBBUS1 428#0A00000145B434 R
(699241.642781) PCAN_USBBUS1 14A#002A000007002A28 R
(699241.643677) PCAN_USBBUS1 158#0000000000000019 R
(699241.643933) PCAN_USBBUS1 191#010000A9A9A10119 R
(699241.644743) PCAN_USBBUS1 094#80620801FA000C76 R
(699241.644914) PCAN_USBBUS1 1AB#800064 R
(699241.646279) PCAN_USBBUS1 130#0000FFFF00000422 R
(699241.646535) PCAN_USBBUS1 17C#0000000000000022 R
(699241.646663) PCAN_USBBUS1 1D6#0013 R
(699241.646877) PCAN_USBBUS1 1DC#42000000000017 R
(699241.647133) PCAN_USBBUS1 1DD#006C080E00000014 R
(699241.647303) PCAN_USBBUS1 1ED#000000001B R
(699241.650119) PCAN_USBBUS1 1DF#8AD0000000000039 R
(699241.650333) PCAN_USBBUS1 1EF#03FF007530000037 R
(699241.650589) PCAN_USBBUS1 1FA#000000000000003B R
(699241.650845) PCAN_USBBUS1 1FB#3A R
(699241.651485) PCAN_USBBUS1 1AC#7FFF00000000002B R
(699241.651741) PCAN_USBBUS1 1C2#0000000000000027 R
(699241.651954) PCAN_USBBUS1 1A4#006700000000002A R
(699241.652253) PCAN_USBBUS1 1B0#00000000000129 R
(699241.652935) PCAN_USBBUS1 14A#002A000007002A37 R
(699241.653405) PCAN_USBBUS1 1D0#000000000000000A R
(699241.653703) PCAN_USBBUS1 158#0000000000000028 R
(699241.653959) PCAN_USBBUS1 191#010000A9A9A10128 R
(699241.654087) PCAN_USBBUS1 1A7#0033 R
(699241.654770) PCAN_USBBUS1 094#80220801FB000C4C R
(699241.655367) PCAN_USBBUS1 221#360000000037 R
(699241.655538) PCAN_USBBUS1 296#00000034 R
(699241.656263) PCAN_USBBUS1 130#0000FFFF00000431 R
(699241.656519) PCAN_USBBUS1 17C#0000000000000031 R
(699241.656690) PCAN_USBBUS1 039#00001B R
(699241.662749) PCAN_USBBUS1 14A#002A000007002A0A R
(699241.663687) PCAN_USBBUS1 158#0000000000000037 R
(699241.663943) PCAN_USBBUS1 191#010000A9A9A10137 R
(699241.664754) PCAN_USBBUS1 094#80220801FB000C5B R
(699241.664925) PCAN_USBBUS1 1AB#800073 R
(699241.666290) PCAN_USBBUS1 130#0000FFFF00000404 R
(699241.666546) PCAN_USBBUS1 17C#0000000000000004 R
(699241.666674) PCAN_USBBUS1 1D6#0022 R
(699241.666887) PCAN_USBBUS1 1DC#42000000000026 R
(699241.667143) PCAN_USBBUS1 1DD#006C080E00000023 R
(699241.667314) PCAN_USBBUS1 1ED#000000002A R
(699241.670087) PCAN_USBBUS1 1DF#8AD000000000000C R
(699241.670343) PCAN_USBBUS1 1EF#03FF00753000000A R
(699241.670599) PCAN_USBBUS1 1FA#000000000000000E R
(699241.671111) PCAN_USBBUS1 1FB#0D R
(699241.671538) PCAN_USBBUS1 1AC#7FFF00000000003A R
(699241.671751) PCAN_USBBUS1 1C2#0000000000000036 R
(699241.672007) PCAN_USBBUS1 1A4#0067000000000039 R
(699241.672306) PCAN_USBBUS1 1B0#00000000000138 R
(699241.672988) PCAN_USBBUS1 14A#002A000007002A19 R
(699241.673458) PCAN_USBBUS1 1D0#000000000000000A R
(699241.673714) PCAN_USBBUS1 158#000000000000000A R
(699241.673927) PCAN_USBBUS1 191#010000A9A9A1010A R
(699241.674098) PCAN_USBBUS1 1A7#0006 R
(699241.674311) PCAN_USBBUS1 255#0000000055553E18 R
(699241.674738) PCAN_USBBUS1 094#80620801FC000C65 R
(699241.676274) PCAN_USBBUS1 130#0000FFFF00000413 R
(699241.676530) PCAN_USBBUS1 17C#0000000000000013 R
(699241.682759) PCAN_USBBUS1 14A#002A000007002A28 R
(699241.683698) PCAN_USBBUS1 158#0000000000000019 R
(699241.683954) PCAN_USBBUS1 191#010000A9A9A10119 R
(699241.684764) PCAN_USBBUS1 094#80620801FB000C75 R
(699241.684892) PCAN_USBBUS1 1AB#800046 R
(699241.686258) PCAN_USBBUS1 130#0000FFFF00000422 R
(699241.686514) PCAN_USBBUS1 17C#0000000000000022 R
(699241.686642) PCAN_USBBUS1 1D6#0031 R
(699241.686898) PCAN_USBBUS1 1DC#42000000000035 R
(699241.687111) PCAN_USBBUS1 1DD#006C080E00000032 R
(699241.687324) PCAN_USBBUS1 1ED#0000000039 R
(699241.690097) PCAN_USBBUS1 1DF#8AD000000000001B R
(699241.690353) PCAN_USBBUS1 1EF#03FF007530000019 R
(699241.690609) PCAN_USBBUS1 1FA#000000000000001D R
(699241.690823) PCAN_USBBUS1 1FB#1C R
(699241.691548) PCAN_USBBUS1 1AC#7FFF00000000000D R
(699241.691804) PCAN_USBBUS1 1C2#0000000000000009 R
(699241.692060) PCAN_USBBUS1 1A4#006700000000000C R
(699241.692316) PCAN_USBBUS1 31B#0000000000000018 R
(699241.692529) PCAN_USBBUS1 1B0#0000000000010B R
(699241.692785) PCAN_USBBUS1 14A#002A000007002A37 R
(699241.693511) PCAN_USBBUS1 1D0#000000000000000A R
(699241.693767) PCAN_USBBUS1 158#0000000000000028 R
(699241.693980) PCAN_USBBUS1 191#010000A9A9A10128 R
(699241.694151) PCAN_USBBUS1 1A7#0015 R
(699241.694748) PCAN_USBBUS1 094#80620801FB000C48 R
(699241.695559) PCAN_USBBUS1 221#36000000000A R
(699241.695729) PCAN_USBBUS1 296#00000007 R
(699241.696284) PCAN_USBBUS1 130#0000FFFF00000431 R
(699241.696540) PCAN_USBBUS1 17C#0000000000000031 R
(699241.696668) PCAN_USBBUS1 039#00002A R
(699241.702727) PCAN_USBBUS1 305#8054000000002D R
(699241.702983) PCAN_USBBUS1 14A#002A000007002A0A R
(699241.703708) PCAN_USBBUS1 158#0000000000000037 R
(699241.703921) PCAN_USBBUS1 191#010000A9A9A10137 R
(699241.704732) PCAN_USBBUS1 094#80220801FA000C5C R
(699241.704903) PCAN_USBBUS1 1AB#800055 R
(699241.706268) PCAN_USBBUS1 35E#0000000000000011 R
(699241.706524) PCAN_USBBUS1 130#0000FFFF00000404 R
(699241.706780) PCAN_USBBUS1 17C#0000000000000004 R
(699241.706908) PCAN_USBBUS1 1D6#0004 R
(699241.707121) PCAN_USBBUS1 1DC#42000000000008 R
(699241.707377) PCAN_USBBUS1 1DD#006C080E00000005 R
(699241.707548) PCAN_USBBUS1 1ED#000000000C R
(699241.707804) PCAN_USBBUS1 320#0000000000000003 R
(699241.708060) PCAN_USBBUS1 324#5959000000000A81 R
(699241.708316) PCAN_USBBUS1 328#0000000000000047 R
(699241.708572) PCAN_USBBUS1 32F#0000000000000004 R
(699241.708700) PCAN_USBBUS1 339#FE29103D R
(699241.708956) PCAN_USBBUS1 34E#0055000000000009 R
(699241.709212) PCAN_USBBUS1 37C#FA00000000000009 R
(699241.709468) PCAN_USBBUS1 3D7#B0C1310000000041 R
(699241.710150) PCAN_USBBUS1 1DF#8AD000000000002A R
(699241.710406) PCAN_USBBUS1 1EF#03FF007530000028 R
(699241.710662) PCAN_USBBUS1 1FA#000000000000002C R
(699241.710918) PCAN_USBBUS1 30C#000000FF00008021 R
(699241.711004) PCAN_USBBUS1 1FB#2B R
(699241.711217) PCAN_USBBUS1 33D#000000082B R
(699241.711473) PCAN_USBBUS1 39F#000000000000002B R
(699241.711729) PCAN_USBBUS1 1AC#7FFF00000000001C R
(699241.711942) PCAN_USBBUS1 1A4#006700000000001B R
(699241.712198) PCAN_USBBUS1 1B0#0000000000011A R
(699241.712412) PCAN_USBBUS1 1C2#0000000000000018 R
(699241.712838) PCAN_USBBUS1 14A#002A000007002A19 R
(699241.713564) PCAN_USBBUS1 1D0#000000000000000A R
(699241.713820) PCAN_USBBUS1 158#000000000000000A R
(699241.714033) PCAN_USBBUS1 191#010000A9A9A1010A R
(699241.714161) PCAN_USBBUS1 1A7#0024 R
(699241.714417) PCAN_USBBUS1 255#0000000055553F17 R
(699241.714801) PCAN_USBBUS1 094#80220805FB000C66 R
(699241.716294) PCAN_USBBUS1 130#0000FFFF00000413 R
(699241.716550) PCAN_USBBUS1 17C#0000000000000013 R
(699241.722780) PCAN_USBBUS1 14A#002A000007002A28 R
(699241.723718) PCAN_USBBUS1 158#0000000000000019 R
(699241.723974) PCAN_USBBUS1 191#010000A9A9A10119 R
(699241.724742) PCAN_USBBUS1 094#80220801FC000C78 R
(699241.724870) PCAN_USBBUS1 1AB#800064 R
(699241.726278) PCAN_USBBUS1 130#0000FFFF00000422 R
(699241.726534) PCAN_USBBUS1 17C#0000000000000022 R
(699241.726662) PCAN_USBBUS1 1D6#0013 R
(699241.726876) PCAN_USBBUS1 1DC#42000000000017 R
(699241.727132) PCAN_USBBUS1 1DD#006C080E00000014 R
(699241.727302) PCAN_USBBUS1 1ED#000000001B R
(699241.730118) PCAN_USBBUS1 1DF#8AD0000000000039 R
(699241.730331) PCAN_USBBUS1 1EF#03FF007530000037 R
(699241.730587) PCAN_USBBUS1 1FA#000000000000003B R
(699241.730801) PCAN_USBBUS1 1FB#3A R
(699241.731654) PCAN_USBBUS1 1AC#7FFF00000000002B R
(699241.731910) PCAN_USBBUS1 1C2#0000000000000027 R
(699241.732123) PCAN_USBBUS1 1A4#006700000000002A R
(699241.732422) PCAN_USBBUS1 1B0#00000000000129 R
(699241.732849) PCAN_USBBUS1 14A#002A000007002A37 R
(699241.733574) PCAN_USBBUS1 1D0#000000000000000A R
(699241.733830) PCAN_USBBUS1 158#0000000000000028 R
(699241.734043) PCAN_USBBUS1 191#010000A9A9A10128 R
(699241.734214) PCAN_USBBUS1 1A7#0033 R
(699241.734811) PCAN_USBBUS1 094#80220801FB000C4C R
(699241.736177) PCAN_USBBUS1 221#360000000019 R
(699241.736433) PCAN_USBBUS1 130#0000FFFF00000431 R
(699241.736689) PCAN_USBBUS1 17C#0000000000000031 R
(699241.736817) PCAN_USBBUS1 039#000039 R
(699241.736987) PCAN_USBBUS1 296#00000016 R
(699241.737243) PCAN_USBBUS1 309#0000000000004026 R
(699241.737499) PCAN_USBBUS1 326#6632020000000028 R
(699241.737755) PCAN_USBBUS1 371#000000000000002B R
(699241.737926) PCAN_USBBUS1 372#E000002C R
(699241.738182) PCAN_USBBUS1 374#43400100C940402F R
(699241.738438) PCAN_USBBUS1 378#000000003C8000E1 R
(699241.738651) PCAN_USBBUS1 37B#0000002018000026 R
(699241.738907) PCAN_USBBUS1 396#0000004300002D R
(699241.739163) PCAN_USBBUS1 3A1#0E80100000000012 R
(699241.742747) PCAN_USBBUS1 14A#002A000007002A0A R
(699241.743729) PCAN_USBBUS1 158#0000000000000037 R
(699241.743942) PCAN_USBBUS1 191#010000A9A9A10137 R
(699241.744710) PCAN_USBBUS1 094#80220801FB000C5B R
(699241.744881) PCAN_USBBUS1 1AB#800073 R
(699241.746289) PCAN_USBBUS1 130#0000FFFF00000404 R
(699241.746545) PCAN_USBBUS1 17C#0000000000000004 R
(699241.746673) PCAN_USBBUS1 1D6#0022 R
(699241.746886) PCAN_USBBUS1 1DC#42000000000026 R
(699241.747142) PCAN_USBBUS1 1DD#006C080E00000023 R
(699241.747313) PCAN_USBBUS1 1ED#000000002A R
(699241.750086) PCAN_USBBUS1 1DF#8AD000000000000C R
(699241.750342) PCAN_USBBUS1 1EF#03FF00753000000A R
(699241.750598) PCAN_USBBUS1 1FA#000000000000000E R
(699241.750811) PCAN_USBBUS1 1FB#0D R
(699241.751664) PCAN_USBBUS1 1AC#7FFF00000000003A R
(699241.751920) PCAN_USBBUS1 1C2#0000000000000036 R
(699241.752176) PCAN_USBBUS1 1A4#0067000000000039 R
(699241.752432) PCAN_USBBUS1 1B0#00000000000138 R
(699241.752902) PCAN_USBBUS1 14A#002A000007002A19 R
(699241.753627) PCAN_USBBUS1 1D0#000000000000000A R
(699241.753883) PCAN_USBBUS1 158#000000000000000A R
(699241.754096) PCAN_USBBUS1 191#010000A9A9A1010A R
(699241.754224) PCAN_USBBUS1 1A7#0006 R
(699241.754480) PCAN_USBBUS1 255#0000000055554016 R
(699241.754864) PCAN_USBBUS1 094#80220801FA000C6B R
(699241.756272) PCAN_USBBUS1 130#0000FFFF00000413 R
(699241.756528) PCAN_USBBUS1 17C#0000000000000013 R
(699241.762758) PCAN_USBBUS1 14A#002A000007002A28 R
(699241.763696) PCAN_USBBUS1 158#0000000000000019 R
(699241.763952) PCAN_USBBUS1 191#010000A9A9A10119 R
(699241.764720) PCAN_USBBUS1 094#80620801FB000C75 R
(699241.764848) PCAN_USBBUS1 1AB#800046 R
(699241.766299) PCAN_USBBUS1 130#0000FFFF00000422 R
(699241.766512) PCAN_USBBUS1 17C#0000000000000022 R
(699241.766683) PCAN_USBBUS1 1D6#0031 R
(699241.766896) PCAN_USBBUS1 1DC#42000000000035 R
(699241.767152) PCAN_USBBUS1 1DD#006C080E00000032 R
(699241.767323) PCAN_USBBUS1 1ED#0000000039 R
(699241.770096) PCAN_USBBUS1 1DF#8AD000000000001B R
(699241.770352) PCAN_USBBUS1 1EF#03FF007530000019 R
(699241.770608) PCAN_USBBUS1 1FA#000000000000001D R
(699241.771078) PCAN_USBBUS1 1FB#1C R
(699241.771718) PCAN_USBBUS1 1AC#7FFF00000000000D R
(699241.771974) PCAN_USBBUS1 1C2#0000000000000009 R
(699241.772230) PCAN_USBBUS1 1A4#006700000000000C R
(699241.772486) PCAN_USBBUS1 1B0#0000000000010B R
(699241.772955) PCAN_USBBUS1 14A#002A000007002A37 R
(699241.773680) PCAN_USBBUS1 1D0#000000000000000A R
(699241.773936) PCAN_USBBUS1 158#0000000000000028 R
(699241.774149) PCAN_USBBUS1 191#010000A9A9A10128 R
(699241.774277) PCAN_USBBUS1 1A7#0015 R
(699241.774917) PCAN_USBBUS1 094#80620801FB000C48 R
(699241.775344) PCAN_USBBUS1 221#360000000028 R
(699241.775515) PCAN_USBBUS1 296#00000025 R
(699241.776283) PCAN_USBBUS1 130#0000FFFF00000431 R
(699241.776539) PCAN_USBBUS1 17C#0000000000000031 R
(699241.776709) PCAN_USBBUS1 039#00000C R
(699241.782768) PCAN_USBBUS1 14A#002A000007002A0A R
(699241.783707) PCAN_USBBUS1 158#0000000000000037 R
(699241.783963) PCAN_USBBUS1 191#010000A9A9A10137 R
(699241.784731) PCAN_USBBUS1 094#80620801FB000C57 R
(699241.784859) PCAN_USBBUS1 1AB#800055 R
(699241.786267) PCAN_USBBUS1 130#0000FFFF00000404 R
(699241.786523) PCAN_USBBUS1 17C#0000000000000004 R
(699241.786651) PCAN_USBBUS1 1D6#0004 R
(699241.786907) PCAN_USBBUS1 1DC#42000000000008 R
(699241.787120) PCAN_USBBUS1 1DD#006C080E00000005 R
(699241.787333) PCAN_USBBUS1 1ED#000000000C R
(699241.790107) PCAN_USBBUS1 1DF#8AD000000000002A R
(699241.790363) PCAN_USBBUS1 1EF#03FF007530000028 R
(699241.790619) PCAN_USBBUS1 1FA#000000000000002C R
(699241.790832) PCAN_USBBUS1 45B#0013 R
(699241.791003) PCAN_USBBUS1 1FB#2B R
(699241.791259) PCAN_USBBUS1 444#1B R
(699241.791771) PCAN_USBBUS1 1AC#7FFF00000000001C R
(699241.792027) PCAN_USBBUS1 1C2#0000000000000018 R
(699241.792240) PCAN_USBBUS1 1A4#006700000000001B R
(699241.792496) PCAN_USBBUS1 31B#0000000000000027 R
(699241.792752) PCAN_USBBUS1 1B0#0000000000011A R
(699241.792965) PCAN_USBBUS1 14A#002A000007002A19 R
(699241.793733) PCAN_USBBUS1 1D0#000000000000000A R
(699241.793989) PCAN_USBBUS1 158#000000000000000A R
(699241.794202) PCAN_USBBUS1 191#010000A9A9A1010A R
(699241.794330) PCAN_USBBUS1 1A7#0024 R
(699241.794586) PCAN_USBBUS1 255#0000000055554115 R
(699241.794928) PCAN_USBBUS1 094#80220801FB000C6A R
(699241.796293) PCAN_USBBUS1 130#0000FFFF00000413 R
(699241.796549) PCAN_USBBUS1 17C#0000000000000013 R
(699241.802650) PCAN_USBBUS1 305#8054000000003C R
(699241.802906) PCAN_USBBUS1 14A#002A000007002A28 R
(699241.803717) PCAN_USBBUS1 158#0000000000000019 R
(699241.803973) PCAN_USBBUS1 191#010000A9A9A10119 R
(699241.804698) PCAN_USBBUS1 094#80620801FA000C76 R
(699241.804869) PCAN_USBBUS1 1AB#800064 R
(699241.806277) PCAN_USBBUS1 130#0000FFFF00000422 R
(699241.806533) PCAN_USBBUS1 17C#0000000000000022 R
(699241.806661) PCAN_USBBUS1 1D6#0013 R
(699241.806917) PCAN_USBBUS1 1DC#42000000000017 R
(699241.807130) PCAN_USBBUS1 1DD#006C080E00000014 R
(699241.807344) PCAN_USBBUS1 1ED#000000001B R
(699241.807557) PCAN_USBBUS1 320#0000000000000012 R
(699241.807813) PCAN_USBBUS1 324#5959000000000A90 R
(699241.808069) PCAN_USBBUS1 328#0000000000000056 R
(699241.808325) PCAN_USBBUS1 32F#0000000000000013 R
(699241.808453) PCAN_USBBUS1 339#FE291000 R
(699241.808709) PCAN_USBBUS1 34E#0055000000000018 R
(699241.808965) PCAN_USBBUS1 35E#0000000000000020 R
(699241.809221) PCAN_USBBUS1 37C#FA00000000000018 R
(699241.809392) PCAN_USBBUS1 400#000002003F R
(699241.809648) PCAN_USBBUS1 40C#A248343548553332 R
(699241.809861) PCAN_USBBUS1 454#39F0012B6000C03D R
(699241.810117) PCAN_USBBUS1 465#0000000000000135 R
(699241.810373) PCAN_USBBUS1 1DF#8AD0000000000039 R
(699241.810586) PCAN_USBBUS1 1EF#03FF007530000037 R
(699241.810842) PCAN_USBBUS1 1FA#000000000000003B R
(699241.810970) PCAN_USBBUS1 1FB#3A R
(699241.811226) PCAN_USBBUS1 30C#000000FF00008030 R
(699241.811397) PCAN_USBBUS1 33D#000000083A R
(699241.811653) PCAN_USBBUS1 39F#000000000000003A R
(699241.811909) PCAN_USBBUS1 1AC#7FFF00000000002B R
(699241.812165) PCAN_USBBUS1 1C2#0000000000000027 R
(699241.812378) PCAN_USBBUS1 1A4#006700000000002A R
(699241.812506) PCAN_USBBUS1 467#2032 R
(699241.812762) PCAN_USBBUS1 1B0#00000000000129 R
(699241.812976) PCAN_USBBUS1 14A#002A000007002A37 R
(699241.813744) PCAN_USBBUS1 158#0000000000000028 R
(699241.813957) PCAN_USBBUS1 191#010000A9A9A10128 R
